Time [s],Packet ID,Address,Data,Read/Write,ACK/NAK
5.082871000000000,0,208,107,Write,ACK
5.082966100000000,0,208,128,Write,ACK
5.183198700000000,1,208,107,Write,ACK
5.183293900000000,1,208,0,Write,ACK
5.183535500000000,2,208,6,Write,ACK
5.183760800000000,3,209,1,Read,ACK
5.183857000000000,3,209,60,Read,ACK
5.183953200000000,3,209,1,Read,ACK
5.184049300000000,3,209,209,Read,ACK
5.184145500000000,3,209,3,Read,ACK
5.184241600000000,3,209,212,Read,NAK
5.184544800000000,4,208,27,Write,ACK
5.184640000000000,4,208,24,Write,ACK
5.184881600000000,5,208,28,Write,ACK
5.184976800000000,5,208,0,Write,ACK
5.185233200000000,6,208,25,Write,ACK
5.185328400000000,6,208,9,Write,ACK
5.185585000000000,7,208,26,Write,ACK
5.185680200000000,7,208,3,Write,ACK
5.185926700000000,8,208,56,Write,ACK
5.186021900000000,8,208,0,Write,ACK
5.186263400000000,9,208,106,Write,ACK
5.186488600000000,10,209,0,Read,NAK
5.186746800000000,11,208,106,Write,ACK
5.186842000000000,11,208,32,Write,ACK
5.190088200000000,12,208,55,Write,ACK
5.190183400000000,12,208,128,Write,ACK
5.190424900000000,13,208,107,Write,ACK
5.190520100000000,13,208,64,Write,ACK
5.190761600000000,14,208,108,Write,ACK
5.190856800000000,14,208,63,Write,ACK
5.241108900000000,15,208,107,Write,ACK
5.241204000000000,15,208,1,Write,ACK
5.241445600000000,16,208,108,Write,ACK
5.241540800000000,16,208,0,Write,ACK
5.291792900000000,17,208,56,Write,ACK
5.291888100000000,17,208,1,Write,ACK
5.292129500000000,18,208,56,Write,ACK
5.292224700000000,18,208,0,Write,ACK
5.292471300000000,19,208,35,Write,ACK
5.292566500000000,19,208,0,Write,ACK
5.292808100000000,20,208,106,Write,ACK
5.292903300000000,20,208,0,Write,ACK
5.293144800000000,21,208,106,Write,ACK
5.293240000000000,21,208,4,Write,ACK
5.293486600000000,22,208,106,Write,ACK
5.293581800000000,22,208,64,Write,ACK
5.343824000000000,23,208,56,Write,ACK
5.343919100000000,23,208,1,Write,ACK
5.344160700000000,24,208,35,Write,ACK
5.344255900000000,24,208,120,Write,ACK
5.344512400000000,25,208,25,Write,ACK
5.344607500000000,25,208,19,Write,ACK
5.344864000000000,26,208,26,Write,ACK
5.344959200000000,26,208,4,Write,ACK
5.345240700000000,27,208,109,Write,ACK
5.345335900000000,27,208,0,Write,ACK
5.345431100000000,27,208,0,Write,ACK
5.345742600000000,28,208,111,Write,ACK
5.345837800000000,28,208,0,Write,ACK
5.345933000000000,28,208,0,Write,ACK
5.346028100000000,28,208,112,Write,ACK
5.346123300000000,28,208,0,Write,ACK
5.346218500000000,28,208,0,Write,ACK
5.346313700000000,28,208,0,Write,ACK
5.346408900000000,28,208,0,Write,ACK
5.346504000000000,28,208,36,Write,ACK
5.346599200000000,28,208,0,Write,ACK
5.346694400000000,28,208,0,Write,ACK
5.346789600000000,28,208,0,Write,ACK
5.346884800000000,28,208,2,Write,ACK
5.346979900000000,28,208,0,Write,ACK
5.347075100000000,28,208,3,Write,ACK
5.347170300000000,28,208,0,Write,ACK
5.347265500000000,28,208,0,Write,ACK
5.347512100000000,29,208,109,Write,ACK
5.347607300000000,29,208,0,Write,ACK
5.347702400000000,29,208,0,Write,ACK
5.347944000000000,30,208,111,Write,ACK
5.348169200000000,31,209,0,Read,ACK
5.348265400000000,31,209,0,Read,ACK
5.348361600000000,31,209,112,Read,ACK
5.348457700000000,31,209,0,Read,ACK
5.348553900000000,31,209,0,Read,ACK
5.348650000000000,31,209,0,Read,ACK
5.348746200000000,31,209,0,Read,ACK
5.348842300000000,31,209,36,Read,ACK
5.348938500000000,31,209,0,Read,ACK
5.349034700000000,31,209,0,Read,ACK
5.349130900000000,31,209,0,Read,ACK
5.349227100000000,31,209,2,Read,ACK
5.349323200000000,31,209,0,Read,ACK
5.349419400000000,31,209,3,Read,ACK
5.349515600000000,31,209,0,Read,ACK
5.349611700000000,31,209,0,Read,NAK
5.350009700000000,32,208,109,Write,ACK
5.350104800000000,32,208,0,Write,ACK
5.350200000000000,32,208,16,Write,ACK
5.350506600000000,33,208,111,Write,ACK
5.350601700000000,33,208,0,Write,ACK
5.350696900000000,33,208,101,Write,ACK
5.350792000000000,33,208,0,Write,ACK
5.350887200000000,33,208,84,Write,ACK
5.350982300000000,33,208,255,Write,ACK
5.351084200000000,33,208,239,Write,ACK
5.351179400000000,33,208,0,Write,ACK
5.351274600000000,33,208,0,Write,ACK
5.351369700000000,33,208,250,Write,ACK
5.351464900000000,33,208,128,Write,ACK
5.351560100000000,33,208,0,Write,ACK
5.351655300000000,33,208,11,Write,ACK
5.351750400000000,33,208,18,Write,ACK
5.351845500000000,33,208,130,Write,ACK
5.351940700000000,33,208,0,Write,ACK
5.352035900000000,33,208,1,Write,ACK
5.352282500000000,34,208,109,Write,ACK
5.352377600000000,34,208,0,Write,ACK
5.352472800000000,34,208,16,Write,ACK
5.352714300000000,35,208,111,Write,ACK
5.352939500000000,36,209,0,Read,ACK
5.353035700000000,36,209,101,Read,ACK
5.353131800000000,36,209,0,Read,ACK
5.353228000000000,36,209,84,Read,ACK
5.353324200000000,36,209,255,Read,ACK
5.353420400000000,36,209,239,Read,ACK
5.353516500000000,36,209,0,Read,ACK
5.353612700000000,36,209,0,Read,ACK
5.353708900000000,36,209,250,Read,ACK
5.353805100000000,36,209,128,Read,ACK
5.353901300000000,36,209,0,Read,ACK
5.353997400000000,36,209,11,Read,ACK
5.354093600000000,36,209,18,Read,ACK
5.354189800000000,36,209,130,Read,ACK
5.354286000000000,36,209,0,Read,ACK
5.354382100000000,36,209,1,Read,NAK
5.354780100000000,37,208,109,Write,ACK
5.354875200000000,37,208,0,Write,ACK
5.354970400000000,37,208,32,Write,ACK
5.355281900000000,38,208,111,Write,ACK
5.355377100000000,38,208,3,Write,ACK
5.355472200000000,38,208,12,Write,ACK
5.355567400000000,38,208,48,Write,ACK
5.355662600000000,38,208,195,Write,ACK
5.355757800000000,38,208,14,Write,ACK
5.355853000000000,38,208,140,Write,ACK
5.355948100000000,38,208,140,Write,ACK
5.356043300000000,38,208,233,Write,ACK
5.356138500000000,38,208,20,Write,ACK
5.356233700000000,38,208,213,Write,ACK
5.356328900000000,38,208,64,Write,ACK
5.356424000000000,38,208,2,Write,ACK
5.356519200000000,38,208,19,Write,ACK
5.356614400000000,38,208,113,Write,ACK
5.356709600000000,38,208,15,Write,ACK
5.356804800000000,38,208,142,Write,ACK
5.357051400000000,39,208,109,Write,ACK
5.357146500000000,39,208,0,Write,ACK
5.357241700000000,39,208,32,Write,ACK
5.357483200000000,40,208,111,Write,ACK
5.357708500000000,41,209,3,Read,ACK
5.357804700000000,41,209,12,Read,ACK
5.357900800000000,41,209,48,Read,ACK
5.357996900000000,41,209,195,Read,ACK
5.358093100000000,41,209,14,Read,ACK
5.358189300000000,41,209,140,Read,ACK
5.358285400000000,41,209,140,Read,ACK
5.358381600000000,41,209,233,Read,ACK
5.358477800000000,41,209,20,Read,ACK
5.358574000000000,41,209,213,Read,ACK
5.358670200000000,41,209,64,Read,ACK
5.358766300000000,41,209,2,Read,ACK
5.358862500000000,41,209,19,Read,ACK
5.358958700000000,41,209,113,Read,ACK
5.359054900000000,41,209,15,Read,ACK
5.359151000000000,41,209,142,Read,NAK
5.359549000000000,42,208,109,Write,ACK
5.359644200000000,42,208,0,Write,ACK
5.359739400000000,42,208,48,Write,ACK
5.360051000000000,43,208,111,Write,ACK
5.360146100000000,43,208,56,Write,ACK
5.360241300000000,43,208,131,Write,ACK
5.360336400000000,43,208,248,Write,ACK
5.360431600000000,43,208,131,Write,ACK
5.360526800000000,43,208,48,Write,ACK
5.360622000000000,43,208,0,Write,ACK
5.360717200000000,43,208,248,Write,ACK
5.360812300000000,43,208,131,Write,ACK
5.360907500000000,43,208,37,Write,ACK
5.361002600000000,43,208,142,Write,ACK
5.361097800000000,43,208,248,Write,ACK
5.361192900000000,43,208,131,Write,ACK
5.361288100000000,43,208,48,Write,ACK
5.361383300000000,43,208,0,Write,ACK
5.361478500000000,43,208,248,Write,ACK
5.361573600000000,43,208,131,Write,ACK
5.361820200000000,44,208,109,Write,ACK
5.361915400000000,44,208,0,Write,ACK
5.362010600000000,44,208,48,Write,ACK
5.362252100000000,45,208,111,Write,ACK
5.362477400000000,46,209,56,Read,ACK
5.362573600000000,46,209,131,Read,ACK
5.362669700000000,46,209,248,Read,ACK
5.362765900000000,46,209,131,Read,ACK
5.362862100000000,46,209,48,Read,ACK
5.362958300000000,46,209,0,Read,ACK
5.363054400000000,46,209,248,Read,ACK
5.363150500000000,46,209,131,Read,ACK
5.363246700000000,46,209,37,Read,ACK
5.363342900000000,46,209,142,Read,ACK
5.363439000000000,46,209,248,Read,ACK
5.363535200000000,46,209,131,Read,ACK
5.363631400000000,46,209,48,Read,ACK
5.363727600000000,46,209,0,Read,ACK
5.363823800000000,46,209,248,Read,ACK
5.363919900000000,46,209,131,Read,NAK
5.364327900000000,47,208,109,Write,ACK
5.364423100000000,47,208,0,Write,ACK
5.364518300000000,47,208,64,Write,ACK
5.364824800000000,48,208,111,Write,ACK
5.364920000000000,48,208,255,Write,ACK
5.365015200000000,48,208,255,Write,ACK
5.365110300000000,48,208,255,Write,ACK
5.365205500000000,48,208,255,Write,ACK
5.365300700000000,48,208,15,Write,ACK
5.365395900000000,48,208,254,Write,ACK
5.365491000000000,48,208,169,Write,ACK
5.365586200000000,48,208,214,Write,ACK
5.365681400000000,48,208,36,Write,ACK
5.365776600000000,48,208,0,Write,ACK
5.365871800000000,48,208,4,Write,ACK
5.365966900000000,48,208,0,Write,ACK
5.366062100000000,48,208,26,Write,ACK
5.366157200000000,48,208,130,Write,ACK
5.366252400000000,48,208,121,Write,ACK
5.366347500000000,48,208,161,Write,ACK
5.366594100000000,49,208,109,Write,ACK
5.366689300000000,49,208,0,Write,ACK
5.366784500000000,49,208,64,Write,ACK
5.367026000000000,50,208,111,Write,ACK
5.367251300000000,51,209,255,Read,ACK
5.367347400000000,51,209,255,Read,ACK
5.367443600000000,51,209,255,Read,ACK
5.367539800000000,51,209,255,Read,ACK
5.367636000000000,51,209,15,Read,ACK
5.367732200000000,51,209,254,Read,ACK
5.367828300000000,51,209,169,Read,ACK
5.367924500000000,51,209,214,Read,ACK
5.368020700000000,51,209,36,Read,ACK
5.368116900000000,51,209,0,Read,ACK
5.368213100000000,51,209,4,Read,ACK
5.368309200000000,51,209,0,Read,ACK
5.368405400000000,51,209,26,Read,ACK
5.368501600000000,51,209,130,Read,ACK
5.368597800000000,51,209,121,Read,ACK
5.368693900000000,51,209,161,Read,NAK
5.369091900000000,52,208,109,Write,ACK
5.369187000000000,52,208,0,Write,ACK
5.369282200000000,52,208,80,Write,ACK
5.369588700000000,53,208,111,Write,ACK
5.369683900000000,53,208,0,Write,ACK
5.369779000000000,53,208,0,Write,ACK
5.369874200000000,53,208,0,Write,ACK
5.369969400000000,53,208,60,Write,ACK
5.370064600000000,53,208,255,Write,ACK
5.370159800000000,53,208,255,Write,ACK
5.370254900000000,53,208,0,Write,ACK
5.370350100000000,53,208,0,Write,ACK
5.370445300000000,53,208,0,Write,ACK
5.370540500000000,53,208,16,Write,ACK
5.370635700000000,53,208,0,Write,ACK
5.370730800000000,53,208,0,Write,ACK
5.370826000000000,53,208,56,Write,ACK
5.370921200000000,53,208,131,Write,ACK
5.371016400000000,53,208,111,Write,ACK
5.371111600000000,53,208,162,Write,ACK
5.371358200000000,54,208,109,Write,ACK
5.371453300000000,54,208,0,Write,ACK
5.371548500000000,54,208,80,Write,ACK
5.371790100000000,55,208,111,Write,ACK
5.372015300000000,56,209,0,Read,ACK
5.372111500000000,56,209,0,Read,ACK
5.372207600000000,56,209,0,Read,ACK
5.372303700000000,56,209,60,Read,ACK
5.372399900000000,56,209,255,Read,ACK
5.372496100000000,56,209,255,Read,ACK
5.372592200000000,56,209,0,Read,ACK
5.372688400000000,56,209,0,Read,ACK
5.372784600000000,56,209,0,Read,ACK
5.372880800000000,56,209,16,Read,ACK
5.372977000000000,56,209,0,Read,ACK
5.373073100000000,56,209,0,Read,ACK
5.373169300000000,56,209,56,Read,ACK
5.373265500000000,56,209,131,Read,ACK
5.373361700000000,56,209,111,Read,ACK
5.373457800000000,56,209,162,Read,NAK
5.373855900000000,57,208,109,Write,ACK
5.373951100000000,57,208,0,Write,ACK
5.374046200000000,57,208,96,Write,ACK
5.374357800000000,58,208,111,Write,ACK
5.374452900000000,58,208,0,Write,ACK
5.374548100000000,58,208,62,Write,ACK
5.374643300000000,58,208,3,Write,ACK
5.374738500000000,58,208,48,Write,ACK
5.374833700000000,58,208,64,Write,ACK
5.374928800000000,58,208,0,Write,ACK
5.375024000000000,58,208,0,Write,ACK
5.375119100000000,58,208,0,Write,ACK
5.375214300000000,58,208,2,Write,ACK
5.375309400000000,58,208,202,Write,ACK
5.375404500000000,58,208,227,Write,ACK
5.375499700000000,58,208,9,Write,ACK
5.375594900000000,58,208,62,Write,ACK
5.375690100000000,58,208,128,Write,ACK
5.375785300000000,58,208,0,Write,ACK
5.375880400000000,58,208,0,Write,ACK
5.376127000000000,59,208,109,Write,ACK
5.376222200000000,59,208,0,Write,ACK
5.376317400000000,59,208,96,Write,ACK
5.376558900000000,60,208,111,Write,ACK
5.376784200000000,61,209,0,Read,ACK
5.376880400000000,61,209,62,Read,ACK
5.376976600000000,61,209,3,Read,ACK
5.377072800000000,61,209,48,Read,ACK
5.377168900000000,61,209,64,Read,ACK
5.377265100000000,61,209,0,Read,ACK
5.377361200000000,61,209,0,Read,ACK
5.377457300000000,61,209,0,Read,ACK
5.377553500000000,61,209,2,Read,ACK
5.377649700000000,61,209,202,Read,ACK
5.377745800000000,61,209,227,Read,ACK
5.377842000000000,61,209,9,Read,ACK
5.377938200000000,61,209,62,Read,ACK
5.378034400000000,61,209,128,Read,ACK
5.378130600000000,61,209,0,Read,ACK
5.378226700000000,61,209,0,Read,NAK
5.378629800000000,62,208,109,Write,ACK
5.378724900000000,62,208,0,Write,ACK
5.378820100000000,62,208,112,Write,ACK
5.379126600000000,63,208,111,Write,ACK
5.379221800000000,63,208,32,Write,ACK
5.379317000000000,63,208,0,Write,ACK
5.379412100000000,63,208,0,Write,ACK
5.379507200000000,63,208,0,Write,ACK
5.379602400000000,63,208,0,Write,ACK
5.379697500000000,63,208,0,Write,ACK
5.379792700000000,63,208,0,Write,ACK
5.379887900000000,63,208,0,Write,ACK
5.379983100000000,63,208,64,Write,ACK
5.380078300000000,63,208,0,Write,ACK
5.380173400000000,63,208,0,Write,ACK
5.380268600000000,63,208,0,Write,ACK
5.380363800000000,63,208,96,Write,ACK
5.380459000000000,63,208,0,Write,ACK
5.380554200000000,63,208,0,Write,ACK
5.380649300000000,63,208,0,Write,ACK
5.380895900000000,64,208,109,Write,ACK
5.380991100000000,64,208,0,Write,ACK
5.381088300000000,64,208,112,Write,ACK
5.381329800000000,65,208,111,Write,ACK
5.381555100000000,66,209,32,Read,ACK
5.381651300000000,66,209,0,Read,ACK
5.381747500000000,66,209,0,Read,ACK
5.381843700000000,66,209,0,Read,ACK
5.381939800000000,66,209,0,Read,ACK
5.382036000000000,66,209,0,Read,ACK
5.382132200000000,66,209,0,Read,ACK
5.382228400000000,66,209,0,Read,ACK
5.382324600000000,66,209,64,Read,ACK
5.382420700000000,66,209,0,Read,ACK
5.382516900000000,66,209,0,Read,ACK
5.382613100000000,66,209,0,Read,ACK
5.382709300000000,66,209,96,Read,ACK
5.382805500000000,66,209,0,Read,ACK
5.382901600000000,66,209,0,Read,ACK
5.382997800000000,66,209,0,Read,NAK
5.383395800000000,67,208,109,Write,ACK
5.383490900000000,67,208,0,Write,ACK
5.383586000000000,67,208,128,Write,ACK
5.383892500000000,68,208,111,Write,ACK
5.383987700000000,68,208,0,Write,ACK
5.384088700000000,68,208,12,Write,ACK
5.384183800000000,68,208,0,Write,ACK
5.384279000000000,68,208,0,Write,ACK
5.384374200000000,68,208,0,Write,ACK
5.384469400000000,68,208,12,Write,ACK
5.384564500000000,68,208,24,Write,ACK
5.384659600000000,68,208,110,Write,ACK
5.384754800000000,68,208,0,Write,ACK
5.384850000000000,68,208,0,Write,ACK
5.384945100000000,68,208,6,Write,ACK
5.385040300000000,68,208,146,Write,ACK
5.385135500000000,68,208,10,Write,ACK
5.385230700000000,68,208,22,Write,ACK
5.385325900000000,68,208,192,Write,ACK
5.385421000000000,68,208,223,Write,ACK
5.385667600000000,69,208,109,Write,ACK
5.385762800000000,69,208,0,Write,ACK
5.385858000000000,69,208,128,Write,ACK
5.386099500000000,70,208,111,Write,ACK
5.386324800000000,71,209,0,Read,ACK
5.386420900000000,71,209,12,Read,ACK
5.386517100000000,71,209,0,Read,ACK
5.386613200000000,71,209,0,Read,ACK
5.386709400000000,71,209,0,Read,ACK
5.386805500000000,71,209,12,Read,ACK
5.386901700000000,71,209,24,Read,ACK
5.386997900000000,71,209,110,Read,ACK
5.387094100000000,71,209,0,Read,ACK
5.387190300000000,71,209,0,Read,ACK
5.387286400000000,71,209,6,Read,ACK
5.387382600000000,71,209,146,Read,ACK
5.387478800000000,71,209,10,Read,ACK
5.387575000000000,71,209,22,Read,ACK
5.387671200000000,71,209,192,Read,ACK
5.387767300000000,71,209,223,Read,NAK
5.388165300000000,72,208,109,Write,ACK
5.388260500000000,72,208,0,Write,ACK
5.388355700000000,72,208,144,Write,ACK
5.388662100000000,73,208,111,Write,ACK
5.388757200000000,73,208,255,Write,ACK
5.388852400000000,73,208,255,Write,ACK
5.388947600000000,73,208,2,Write,ACK
5.389042800000000,73,208,86,Write,ACK
5.389138000000000,73,208,253,Write,ACK
5.389233100000000,73,208,140,Write,ACK
5.389328300000000,73,208,211,Write,ACK
5.389423500000000,73,208,119,Write,ACK
5.389518700000000,73,208,255,Write,ACK
5.389613900000000,73,208,225,Write,ACK
5.389709000000000,73,208,196,Write,ACK
5.389804200000000,73,208,150,Write,ACK
5.389899400000000,73,208,224,Write,ACK
5.389994600000000,73,208,197,Write,ACK
5.390089700000000,73,208,190,Write,ACK
5.390184900000000,73,208,170,Write,ACK
5.390431500000000,74,208,109,Write,ACK
5.390526700000000,74,208,0,Write,ACK
5.390625400000000,74,208,144,Write,ACK
5.390866900000000,75,208,111,Write,ACK
5.391092100000000,76,209,255,Read,ACK
5.391188300000000,76,209,255,Read,ACK
5.391284500000000,76,209,2,Read,ACK
5.391380600000000,76,209,86,Read,ACK
5.391476800000000,76,209,253,Read,ACK
5.391573000000000,76,209,140,Read,ACK
5.391669100000000,76,209,211,Read,ACK
5.391765200000000,76,209,119,Read,ACK
5.391861400000000,76,209,255,Read,ACK
5.391957600000000,76,209,225,Read,ACK
5.392053800000000,76,209,196,Read,ACK
5.392149900000000,76,209,150,Read,ACK
5.392246100000000,76,209,224,Read,ACK
5.392342300000000,76,209,197,Read,ACK
5.392438500000000,76,209,190,Read,ACK
5.392534600000000,76,209,170,Read,NAK
5.392937700000000,77,208,109,Write,ACK
5.393032900000000,77,208,0,Write,ACK
5.393128100000000,77,208,160,Write,ACK
5.393434600000000,78,208,111,Write,ACK
5.393529800000000,78,208,0,Write,ACK
5.393625000000000,78,208,0,Write,ACK
5.393720200000000,78,208,0,Write,ACK
5.393815400000000,78,208,0,Write,ACK
5.393910500000000,78,208,255,Write,ACK
5.394005700000000,78,208,255,Write,ACK
5.394100900000000,78,208,11,Write,ACK
5.394196100000000,78,208,43,Write,ACK
5.394291300000000,78,208,0,Write,ACK
5.394386400000000,78,208,0,Write,ACK
5.394481600000000,78,208,22,Write,ACK
5.394576800000000,78,208,87,Write,ACK
5.394672000000000,78,208,0,Write,ACK
5.394767100000000,78,208,0,Write,ACK
5.394862300000000,78,208,3,Write,ACK
5.394957500000000,78,208,89,Write,ACK
5.395214100000000,79,208,109,Write,ACK
5.395309300000000,79,208,0,Write,ACK
5.395404500000000,79,208,160,Write,ACK
5.395645900000000,80,208,111,Write,ACK
5.395875100000000,81,209,0,Read,ACK
5.395971200000000,81,209,0,Read,ACK
5.396067400000000,81,209,0,Read,ACK
5.396163500000000,81,209,0,Read,ACK
5.396259700000000,81,209,255,Read,ACK
5.396355900000000,81,209,255,Read,ACK
5.396452100000000,81,209,11,Read,ACK
5.396548200000000,81,209,43,Read,ACK
5.396644400000000,81,209,0,Read,ACK
5.396740600000000,81,209,0,Read,ACK
5.396836700000000,81,209,22,Read,ACK
5.396932800000000,81,209,87,Read,ACK
5.397029000000000,81,209,0,Read,ACK
5.397125200000000,81,209,0,Read,ACK
5.397221400000000,81,209,3,Read,ACK
5.397317500000000,81,209,89,Read,NAK
5.397715500000000,82,208,109,Write,ACK
5.397810600000000,82,208,0,Write,ACK
5.397905700000000,82,208,176,Write,ACK
5.398217300000000,83,208,111,Write,ACK
5.398312500000000,83,208,64,Write,ACK
5.398407600000000,83,208,0,Write,ACK
5.398502800000000,83,208,0,Write,ACK
5.398598000000000,83,208,0,Write,ACK
5.398693200000000,83,208,0,Write,ACK
5.398788400000000,83,208,0,Write,ACK
5.398883500000000,83,208,29,Write,ACK
5.398978700000000,83,208,250,Write,ACK
5.399073900000000,83,208,0,Write,ACK
5.399169100000000,83,208,2,Write,ACK
5.399264300000000,83,208,108,Write,ACK
5.399359400000000,83,208,29,Write,ACK
5.399454600000000,83,208,0,Write,ACK
5.399549800000000,83,208,0,Write,ACK
5.399645000000000,83,208,0,Write,ACK
5.399740100000000,83,208,0,Write,ACK
5.399992100000000,84,208,109,Write,ACK
5.400090900000000,84,208,0,Write,ACK
5.400186000000000,84,208,176,Write,ACK
5.400427500000000,85,208,111,Write,ACK
5.400652800000000,86,209,64,Read,ACK
5.400749000000000,86,209,0,Read,ACK
5.400845200000000,86,209,0,Read,ACK
5.400941400000000,86,209,0,Read,ACK
5.401037500000000,86,209,0,Read,ACK
5.401133700000000,86,209,0,Read,ACK
5.401229900000000,86,209,29,Read,ACK
5.401326100000000,86,209,250,Read,ACK
5.401422200000000,86,209,0,Read,ACK
5.401518400000000,86,209,2,Read,ACK
5.401614600000000,86,209,108,Read,ACK
5.401710800000000,86,209,29,Read,ACK
5.401807000000000,86,209,0,Read,ACK
5.401903100000000,86,209,0,Read,ACK
5.401999300000000,86,209,0,Read,ACK
5.402095400000000,86,209,0,Read,NAK
5.402493500000000,87,208,109,Write,ACK
5.402588600000000,87,208,0,Write,ACK
5.402683800000000,87,208,192,Write,ACK
5.402990300000000,88,208,111,Write,ACK
5.403091200000000,88,208,63,Write,ACK
5.403186300000000,88,208,255,Write,ACK
5.403281500000000,88,208,223,Write,ACK
5.403376700000000,88,208,235,Write,ACK
5.403471900000000,88,208,0,Write,ACK
5.403567100000000,88,208,62,Write,ACK
5.403662200000000,88,208,179,Write,ACK
5.403757400000000,88,208,182,Write,ACK
5.403852600000000,88,208,0,Write,ACK
5.403947700000000,88,208,13,Write,ACK
5.404042800000000,88,208,34,Write,ACK
5.404138000000000,88,208,120,Write,ACK
5.404233200000000,88,208,0,Write,ACK
5.404328400000000,88,208,0,Write,ACK
5.404423500000000,88,208,47,Write,ACK
5.404518700000000,88,208,60,Write,ACK
5.404765300000000,89,208,109,Write,ACK
5.404860500000000,89,208,0,Write,ACK
5.404960100000000,89,208,192,Write,ACK
5.405206500000000,90,208,111,Write,ACK
5.405431800000000,91,209,63,Read,ACK
5.405528000000000,91,209,255,Read,ACK
5.405624200000000,91,209,223,Read,ACK
5.405720400000000,91,209,235,Read,ACK
5.405816500000000,91,209,0,Read,ACK
5.405912700000000,91,209,62,Read,ACK
5.406008800000000,91,209,179,Read,ACK
5.406105000000000,91,209,182,Read,ACK
5.406201100000000,91,209,0,Read,ACK
5.406297300000000,91,209,13,Read,ACK
5.406393500000000,91,209,34,Read,ACK
5.406489700000000,91,209,120,Read,ACK
5.406585900000000,91,209,0,Read,ACK
5.406682000000000,91,209,0,Read,ACK
5.406778200000000,91,209,47,Read,ACK
5.406874300000000,91,209,60,Read,NAK
5.407287400000000,92,208,109,Write,ACK
5.407382500000000,92,208,0,Write,ACK
5.407477700000000,92,208,208,Write,ACK
5.407784200000000,93,208,111,Write,ACK
5.407879400000000,93,208,0,Write,ACK
5.407974600000000,93,208,0,Write,ACK
5.408069700000000,93,208,0,Write,ACK
5.408164800000000,93,208,0,Write,ACK
5.408260000000000,93,208,0,Write,ACK
5.408355200000000,93,208,25,Write,ACK
5.408450400000000,93,208,66,Write,ACK
5.408545600000000,93,208,181,Write,ACK
5.408640700000000,93,208,0,Write,ACK
5.408735900000000,93,208,0,Write,ACK
5.408831100000000,93,208,57,Write,ACK
5.408926300000000,93,208,162,Write,ACK
5.409021500000000,93,208,0,Write,ACK
5.409116600000000,93,208,0,Write,ACK
5.409211800000000,93,208,179,Write,ACK
5.409307000000000,93,208,101,Write,ACK
5.409553600000000,94,208,109,Write,ACK
5.409648800000000,94,208,0,Write,ACK
5.409743900000000,94,208,208,Write,ACK
5.409985400000000,95,208,111,Write,ACK
5.410215700000000,96,209,0,Read,ACK
5.410311900000000,96,209,0,Read,ACK
5.410408100000000,96,209,0,Read,ACK
5.410504300000000,96,209,0,Read,ACK
5.410600400000000,96,209,0,Read,ACK
5.410696600000000,96,209,25,Read,ACK
5.410792800000000,96,209,66,Read,ACK
5.410889000000000,96,209,181,Read,ACK
5.410985200000000,96,209,0,Read,ACK
5.411081300000000,96,209,0,Read,ACK
5.411177500000000,96,209,57,Read,ACK
5.411273700000000,96,209,162,Read,ACK
5.411369900000000,96,209,0,Read,ACK
5.411466000000000,96,209,0,Read,ACK
5.411562200000000,96,209,179,Read,ACK
5.411658300000000,96,209,101,Read,NAK
5.412056400000000,97,208,109,Write,ACK
5.412151600000000,97,208,0,Write,ACK
5.412246800000000,97,208,224,Write,ACK
5.412553300000000,98,208,111,Write,ACK
5.412648500000000,98,208,217,Write,ACK
5.412743700000000,98,208,14,Write,ACK
5.412838900000000,98,208,159,Write,ACK
5.412934000000000,98,208,201,Write,ACK
5.413029200000000,98,208,29,Write,ACK
5.413124300000000,98,208,207,Write,ACK
5.413219500000000,98,208,76,Write,ACK
5.413314600000000,98,208,52,Write,ACK
5.413409700000000,98,208,48,Write,ACK
5.413504900000000,98,208,0,Write,ACK
5.413600100000000,98,208,0,Write,ACK
5.413695300000000,98,208,0,Write,ACK
5.413790500000000,98,208,80,Write,ACK
5.413885600000000,98,208,0,Write,ACK
5.413980800000000,98,208,0,Write,ACK
5.414076000000000,98,208,0,Write,ACK
5.414326700000000,99,208,109,Write,ACK
5.414421800000000,99,208,0,Write,ACK
5.414517000000000,99,208,224,Write,ACK
5.414758600000000,100,208,111,Write,ACK
5.414983900000000,101,209,217,Read,ACK
5.415080000000000,101,209,14,Read,ACK
5.415176200000000,101,209,159,Read,ACK
5.415272300000000,101,209,201,Read,ACK
5.415368400000000,101,209,29,Read,ACK
5.415464600000000,101,209,207,Read,ACK
5.415560700000000,101,209,76,Read,ACK
5.415656900000000,101,209,52,Read,ACK
5.415753100000000,101,209,48,Read,ACK
5.415849300000000,101,209,0,Read,ACK
5.415945500000000,101,209,0,Read,ACK
5.416041600000000,101,209,0,Read,ACK
5.416137800000000,101,209,80,Read,ACK
5.416234000000000,101,209,0,Read,ACK
5.416330200000000,101,209,0,Read,ACK
5.416426300000000,101,209,0,Read,NAK
5.416824400000000,102,208,109,Write,ACK
5.416919600000000,102,208,0,Write,ACK
5.417014700000000,102,208,240,Write,ACK
5.417321200000000,103,208,111,Write,ACK
5.417416300000000,103,208,59,Write,ACK
5.417511400000000,103,208,182,Write,ACK
5.417606600000000,103,208,122,Write,ACK
5.417701800000000,103,208,232,Write,ACK
5.417797000000000,103,208,0,Write,ACK
5.417892200000000,103,208,100,Write,ACK
5.417987300000000,103,208,0,Write,ACK
5.418082500000000,103,208,0,Write,ACK
5.418177700000000,103,208,0,Write,ACK
5.418272900000000,103,208,200,Write,ACK
5.418368100000000,103,208,0,Write,ACK
5.418463200000000,103,208,0,Write,ACK
5.418558400000000,103,208,0,Write,ACK
5.418653600000000,103,208,0,Write,ACK
5.418748800000000,103,208,0,Write,ACK
5.418844000000000,103,208,0,Write,ACK
5.419094200000000,104,208,109,Write,ACK
5.419189300000000,104,208,0,Write,ACK
5.419284500000000,104,208,240,Write,ACK
5.419526000000000,105,208,111,Write,ACK
5.419751300000000,106,209,59,Read,ACK
5.419847500000000,106,209,182,Read,ACK
5.419943700000000,106,209,122,Read,ACK
5.420039900000000,106,209,232,Read,ACK
5.420136000000000,106,209,0,Read,ACK
5.420232200000000,106,209,100,Read,ACK
5.420328400000000,106,209,0,Read,ACK
5.420424600000000,106,209,0,Read,ACK
5.420520700000000,106,209,0,Read,ACK
5.420616900000000,106,209,200,Read,ACK
5.420713100000000,106,209,0,Read,ACK
5.420809300000000,106,209,0,Read,ACK
5.420905500000000,106,209,0,Read,ACK
5.421001600000000,106,209,0,Read,ACK
5.421097800000000,106,209,0,Read,ACK
5.421193900000000,106,209,0,Read,NAK
5.421597000000000,107,208,109,Write,ACK
5.421692200000000,107,208,1,Write,ACK
5.421787400000000,107,208,0,Write,ACK
5.422094700000000,108,208,111,Write,ACK
5.422189800000000,108,208,16,Write,ACK
5.422285000000000,108,208,0,Write,ACK
5.422380200000000,108,208,0,Write,ACK
5.422475400000000,108,208,0,Write,ACK
5.422570600000000,108,208,16,Write,ACK
5.422665700000000,108,208,0,Write,ACK
5.422760900000000,108,208,250,Write,ACK
5.422856100000000,108,208,146,Write,ACK
5.422951300000000,108,208,16,Write,ACK
5.423046500000000,108,208,0,Write,ACK
5.423141600000000,108,208,34,Write,ACK
5.423236800000000,108,208,94,Write,ACK
5.423332000000000,108,208,0,Write,ACK
5.423427200000000,108,208,13,Write,ACK
5.423522400000000,108,208,34,Write,ACK
5.423617500000000,108,208,159,Write,ACK
5.423864100000000,109,208,109,Write,ACK
5.423959300000000,109,208,1,Write,ACK
5.424054500000000,109,208,0,Write,ACK
5.424296000000000,110,208,111,Write,ACK
5.424526300000000,111,209,16,Read,ACK
5.424622500000000,111,209,0,Read,ACK
5.424718700000000,111,209,0,Read,ACK
5.424814900000000,111,209,0,Read,ACK
5.424911000000000,111,209,16,Read,ACK
5.425007200000000,111,209,0,Read,ACK
5.425103300000000,111,209,250,Read,ACK
5.425199500000000,111,209,146,Read,ACK
5.425295700000000,111,209,16,Read,ACK
5.425391900000000,111,209,0,Read,ACK
5.425488000000000,111,209,34,Read,ACK
5.425584100000000,111,209,94,Read,ACK
5.425680300000000,111,209,0,Read,ACK
5.425776500000000,111,209,13,Read,ACK
5.425872600000000,111,209,34,Read,ACK
5.425968800000000,111,209,159,Read,NAK
5.426376800000000,112,208,109,Write,ACK
5.426471900000000,112,208,1,Write,ACK
5.426567000000000,112,208,16,Write,ACK
5.426873600000000,113,208,111,Write,ACK
5.426968700000000,113,208,0,Write,ACK
5.427063900000000,113,208,1,Write,ACK
5.427159100000000,113,208,0,Write,ACK
5.427254300000000,113,208,0,Write,ACK
5.427349500000000,113,208,0,Write,ACK
5.427444600000000,113,208,50,Write,ACK
5.427539800000000,113,208,0,Write,ACK
5.427635000000000,113,208,0,Write,ACK
5.427730200000000,113,208,255,Write,ACK
5.427825300000000,113,208,70,Write,ACK
5.427920500000000,113,208,0,Write,ACK
5.428015700000000,113,208,0,Write,ACK
5.428110900000000,113,208,99,Write,ACK
5.428206100000000,113,208,212,Write,ACK
5.428301200000000,113,208,0,Write,ACK
5.428396400000000,113,208,0,Write,ACK
5.428653000000000,114,208,109,Write,ACK
5.428748200000000,114,208,1,Write,ACK
5.428843400000000,114,208,16,Write,ACK
5.429084900000000,115,208,111,Write,ACK
5.429310200000000,116,209,0,Read,ACK
5.429406300000000,116,209,1,Read,ACK
5.429502500000000,116,209,0,Read,ACK
5.429598600000000,116,209,0,Read,ACK
5.429694700000000,116,209,0,Read,ACK
5.429790900000000,116,209,50,Read,ACK
5.429887100000000,116,209,0,Read,ACK
5.429983300000000,116,209,0,Read,ACK
5.430079500000000,116,209,255,Read,ACK
5.430175600000000,116,209,70,Read,ACK
5.430271800000000,116,209,0,Read,ACK
5.430368000000000,116,209,0,Read,ACK
5.430464200000000,116,209,99,Read,ACK
5.430560400000000,116,209,212,Read,ACK
5.430656500000000,116,209,0,Read,ACK
5.430752700000000,116,209,0,Read,NAK
5.431150700000000,117,208,109,Write,ACK
5.431245900000000,117,208,1,Write,ACK
5.431341000000000,117,208,32,Write,ACK
5.431647500000000,118,208,111,Write,ACK
5.431742600000000,118,208,16,Write,ACK
5.431837800000000,118,208,0,Write,ACK
5.431933000000000,118,208,0,Write,ACK
5.432028200000000,118,208,0,Write,ACK
5.432123300000000,118,208,4,Write,ACK
5.432218500000000,118,208,214,Write,ACK
5.432313700000000,118,208,0,Write,ACK
5.432408900000000,118,208,0,Write,ACK
5.432504100000000,118,208,4,Write,ACK
5.432599200000000,118,208,204,Write,ACK
5.432694400000000,118,208,0,Write,ACK
5.432789600000000,118,208,0,Write,ACK
5.432884800000000,118,208,4,Write,ACK
5.432980000000000,118,208,204,Write,ACK
5.433075100000000,118,208,0,Write,ACK
5.433170300000000,118,208,0,Write,ACK
5.433416900000000,119,208,109,Write,ACK
5.433512100000000,119,208,1,Write,ACK
5.433607300000000,119,208,32,Write,ACK
5.433848800000000,120,208,111,Write,ACK
5.434074100000000,121,209,16,Read,ACK
5.434170200000000,121,209,0,Read,ACK
5.434266400000000,121,209,0,Read,ACK
5.434362600000000,121,209,0,Read,ACK
5.434458800000000,121,209,4,Read,ACK
5.434554900000000,121,209,214,Read,ACK
5.434654500000000,121,209,0,Read,ACK
5.434750600000000,121,209,0,Read,ACK
5.434846800000000,121,209,4,Read,ACK
5.434943000000000,121,209,204,Read,ACK
5.435039100000000,121,209,0,Read,ACK
5.435135300000000,121,209,0,Read,ACK
5.435231500000000,121,209,4,Read,ACK
5.435327700000000,121,209,204,Read,ACK
5.435423900000000,121,209,0,Read,ACK
5.435520000000000,121,209,0,Read,NAK
5.435923100000000,122,208,109,Write,ACK
5.436018300000000,122,208,1,Write,ACK
5.436113500000000,122,208,48,Write,ACK
5.436420000000000,123,208,111,Write,ACK
5.436515200000000,123,208,0,Write,ACK
5.436610400000000,123,208,0,Write,ACK
5.436705600000000,123,208,16,Write,ACK
5.436800700000000,123,208,114,Write,ACK
5.436895900000000,123,208,0,Write,ACK
5.436991100000000,123,208,0,Write,ACK
5.437086300000000,123,208,0,Write,ACK
5.437181500000000,123,208,64,Write,ACK
5.437276600000000,123,208,0,Write,ACK
5.437371800000000,123,208,0,Write,ACK
5.437467000000000,123,208,0,Write,ACK
5.437562200000000,123,208,0,Write,ACK
5.437657400000000,123,208,0,Write,ACK
5.437752500000000,123,208,0,Write,ACK
5.437847700000000,123,208,0,Write,ACK
5.437942900000000,123,208,0,Write,ACK
5.438192100000000,124,208,109,Write,ACK
5.438287300000000,124,208,1,Write,ACK
5.438382500000000,124,208,48,Write,ACK
5.438624000000000,125,208,111,Write,ACK
5.438854300000000,126,209,0,Read,ACK
5.438950500000000,126,209,0,Read,ACK
5.439046700000000,126,209,16,Read,ACK
5.439142800000000,126,209,114,Read,ACK
5.439239000000000,126,209,0,Read,ACK
5.439335200000000,126,209,0,Read,ACK
5.439431400000000,126,209,0,Read,ACK
5.439527600000000,126,209,64,Read,ACK
5.439623700000000,126,209,0,Read,ACK
5.439719900000000,126,209,0,Read,ACK
5.439816100000000,126,209,0,Read,ACK
5.439912300000000,126,209,0,Read,ACK
5.440008500000000,126,209,0,Read,ACK
5.440104600000000,126,209,0,Read,ACK
5.440200800000000,126,209,0,Read,ACK
5.440296900000000,126,209,0,Read,NAK
5.440695000000000,127,208,109,Write,ACK
5.440790100000000,127,208,1,Write,ACK
5.440885300000000,127,208,64,Write,ACK
5.441192700000000,128,208,111,Write,ACK
5.441287800000000,128,208,0,Write,ACK
5.441383000000000,128,208,6,Write,ACK
5.441478200000000,128,208,0,Write,ACK
5.441573400000000,128,208,2,Write,ACK
5.441668600000000,128,208,0,Write,ACK
5.441763700000000,128,208,5,Write,ACK
5.441858900000000,128,208,0,Write,ACK
5.441954100000000,128,208,7,Write,ACK
5.442049300000000,128,208,0,Write,ACK
5.442144500000000,128,208,0,Write,ACK
5.442239600000000,128,208,0,Write,ACK
5.442334800000000,128,208,0,Write,ACK
5.442430000000000,128,208,0,Write,ACK
5.442525200000000,128,208,100,Write,ACK
5.442620400000000,128,208,0,Write,ACK
5.442715500000000,128,208,0,Write,ACK
5.442972100000000,129,208,109,Write,ACK
5.443067300000000,129,208,1,Write,ACK
5.443162500000000,129,208,64,Write,ACK
5.443404000000000,130,208,111,Write,ACK
5.443629300000000,131,209,0,Read,ACK
5.443725400000000,131,209,6,Read,ACK
5.443821600000000,131,209,0,Read,ACK
5.443917700000000,131,209,2,Read,ACK
5.444013900000000,131,209,0,Read,ACK
5.444110000000000,131,209,5,Read,ACK
5.444206200000000,131,209,0,Read,ACK
5.444302400000000,131,209,7,Read,ACK
5.444398600000000,131,209,0,Read,ACK
5.444494800000000,131,209,0,Read,ACK
5.444590900000000,131,209,0,Read,ACK
5.444687100000000,131,209,0,Read,ACK
5.444783300000000,131,209,0,Read,ACK
5.444879500000000,131,209,100,Read,ACK
5.444975600000000,131,209,0,Read,ACK
5.445071800000000,131,209,0,Read,NAK
5.445469800000000,132,208,109,Write,ACK
5.445565000000000,132,208,1,Write,ACK
5.445660100000000,132,208,80,Write,ACK
5.445966600000000,133,208,111,Write,ACK
5.446061700000000,133,208,0,Write,ACK
5.446156900000000,133,208,0,Write,ACK
5.446252100000000,133,208,0,Write,ACK
5.446347300000000,133,208,0,Write,ACK
5.446442500000000,133,208,0,Write,ACK
5.446537600000000,133,208,0,Write,ACK
5.446632800000000,133,208,0,Write,ACK
5.446728000000000,133,208,5,Write,ACK
5.446823200000000,133,208,0,Write,ACK
5.446918300000000,133,208,5,Write,ACK
5.447013500000000,133,208,0,Write,ACK
5.447108700000000,133,208,100,Write,ACK
5.447203900000000,133,208,0,Write,ACK
5.447299100000000,133,208,32,Write,ACK
5.447394200000000,133,208,0,Write,ACK
5.447489400000000,133,208,0,Write,ACK
5.447736000000000,134,208,109,Write,ACK
5.447831200000000,134,208,1,Write,ACK
5.447926400000000,134,208,80,Write,ACK
5.448167900000000,135,208,111,Write,ACK
5.448393200000000,136,209,0,Read,ACK
5.448489300000000,136,209,0,Read,ACK
5.448585500000000,136,209,0,Read,ACK
5.448681700000000,136,209,0,Read,ACK
5.448777900000000,136,209,0,Read,ACK
5.448874100000000,136,209,0,Read,ACK
5.448970200000000,136,209,0,Read,ACK
5.449066300000000,136,209,5,Read,ACK
5.449162500000000,136,209,0,Read,ACK
5.449258600000000,136,209,5,Read,ACK
5.449354800000000,136,209,0,Read,ACK
5.449451000000000,136,209,100,Read,ACK
5.449547200000000,136,209,0,Read,ACK
5.449643400000000,136,209,32,Read,ACK
5.449739500000000,136,209,0,Read,ACK
5.449835700000000,136,209,0,Read,NAK
5.450248700000000,137,208,109,Write,ACK
5.450343900000000,137,208,1,Write,ACK
5.450439000000000,137,208,96,Write,ACK
5.450745600000000,138,208,111,Write,ACK
5.450840800000000,138,208,0,Write,ACK
5.450935900000000,138,208,0,Write,ACK
5.451036000000000,138,208,0,Write,ACK
5.451131200000000,138,208,0,Write,ACK
5.451226300000000,138,208,0,Write,ACK
5.451321500000000,138,208,0,Write,ACK
5.451416700000000,138,208,0,Write,ACK
5.451511900000000,138,208,0,Write,ACK
5.451607100000000,138,208,0,Write,ACK
5.451702200000000,138,208,0,Write,ACK
5.451797400000000,138,208,64,Write,ACK
5.451892600000000,138,208,0,Write,ACK
5.451987800000000,138,208,0,Write,ACK
5.452083000000000,138,208,0,Write,ACK
5.452178100000000,138,208,3,Write,ACK
5.452273300000000,138,208,0,Write,ACK
5.452519900000000,139,208,109,Write,ACK
5.452615100000000,139,208,1,Write,ACK
5.452710300000000,139,208,96,Write,ACK
5.452951800000000,140,208,111,Write,ACK
5.453178900000000,141,209,0,Read,ACK
5.453275100000000,141,209,0,Read,ACK
5.453371300000000,141,209,0,Read,ACK
5.453467500000000,141,209,0,Read,ACK
5.453563600000000,141,209,0,Read,ACK
5.453659800000000,141,209,0,Read,ACK
5.453756000000000,141,209,0,Read,ACK
5.453852200000000,141,209,0,Read,ACK
5.453948400000000,141,209,0,Read,ACK
5.454044500000000,141,209,0,Read,ACK
5.454140700000000,141,209,64,Read,ACK
5.454236900000000,141,209,0,Read,ACK
5.454333100000000,141,209,0,Read,ACK
5.454429200000000,141,209,0,Read,ACK
5.454525400000000,141,209,3,Read,ACK
5.454621500000000,141,209,0,Read,NAK
5.455019600000000,142,208,109,Write,ACK
5.455114700000000,142,208,1,Write,ACK
5.455209900000000,142,208,112,Write,ACK
5.455516300000000,143,208,111,Write,ACK
5.455611500000000,143,208,0,Write,ACK
5.455706700000000,143,208,0,Write,ACK
5.455801900000000,143,208,0,Write,ACK
5.455897100000000,143,208,50,Write,ACK
5.455992200000000,143,208,248,Write,ACK
5.456087400000000,143,208,152,Write,ACK
5.456182600000000,143,208,0,Write,ACK
5.456277800000000,143,208,0,Write,ACK
5.456373000000000,143,208,255,Write,ACK
5.456468100000000,143,208,101,Write,ACK
5.456563300000000,143,208,0,Write,ACK
5.456658500000000,143,208,0,Write,ACK
5.456753700000000,143,208,131,Write,ACK
5.456848800000000,143,208,15,Write,ACK
5.456944000000000,143,208,0,Write,ACK
5.457039200000000,143,208,0,Write,ACK
5.457295800000000,144,208,109,Write,ACK
5.457391000000000,144,208,1,Write,ACK
5.457486200000000,144,208,112,Write,ACK
5.457727700000000,145,208,111,Write,ACK
5.457953000000000,146,209,0,Read,ACK
5.458049200000000,146,209,0,Read,ACK
5.458145300000000,146,209,0,Read,ACK
5.458241400000000,146,209,50,Read,ACK
5.458337500000000,146,209,248,Read,ACK
5.458433700000000,146,209,152,Read,ACK
5.458529900000000,146,209,0,Read,ACK
5.458626100000000,146,209,0,Read,ACK
5.458722200000000,146,209,255,Read,ACK
5.458818400000000,146,209,101,Read,ACK
5.458914600000000,146,209,0,Read,ACK
5.459010800000000,146,209,0,Read,ACK
5.459107000000000,146,209,131,Read,ACK
5.459203100000000,146,209,15,Read,ACK
5.459299300000000,146,209,0,Read,ACK
5.459395400000000,146,209,0,Read,NAK
5.459793500000000,147,208,109,Write,ACK
5.459888700000000,147,208,1,Write,ACK
5.459983900000000,147,208,128,Write,ACK
5.460295400000000,148,208,111,Write,ACK
5.460390600000000,148,208,255,Write,ACK
5.460485800000000,148,208,155,Write,ACK
5.460581000000000,148,208,252,Write,ACK
5.460676100000000,148,208,0,Write,ACK
5.460771300000000,148,208,0,Write,ACK
5.460866500000000,148,208,0,Write,ACK
5.460961700000000,148,208,0,Write,ACK
5.461056800000000,148,208,0,Write,ACK
5.461152000000000,148,208,0,Write,ACK
5.461247100000000,148,208,0,Write,ACK
5.461342300000000,148,208,0,Write,ACK
5.461437400000000,148,208,0,Write,ACK
5.461532600000000,148,208,0,Write,ACK
5.461627700000000,148,208,0,Write,ACK
5.461722900000000,148,208,0,Write,ACK
5.461818100000000,148,208,0,Write,ACK
5.462064700000000,149,208,109,Write,ACK
5.462159900000000,149,208,1,Write,ACK
5.462255100000000,149,208,128,Write,ACK
5.462496600000000,150,208,111,Write,ACK
5.462721900000000,151,209,255,Read,ACK
5.462818100000000,151,209,155,Read,ACK
5.462914200000000,151,209,252,Read,ACK
5.463010400000000,151,209,0,Read,ACK
5.463106500000000,151,209,0,Read,ACK
5.463202700000000,151,209,0,Read,ACK
5.463298900000000,151,209,0,Read,ACK
5.463395000000000,151,209,0,Read,ACK
5.463491100000000,151,209,0,Read,ACK
5.463587300000000,151,209,0,Read,ACK
5.463683500000000,151,209,0,Read,ACK
5.463779700000000,151,209,0,Read,ACK
5.463875800000000,151,209,0,Read,ACK
5.463972000000000,151,209,0,Read,ACK
5.464068200000000,151,209,0,Read,ACK
5.464164300000000,151,209,0,Read,NAK
5.464567400000000,152,208,109,Write,ACK
5.464662600000000,152,208,1,Write,ACK
5.464757800000000,152,208,144,Write,ACK
5.465064300000000,153,208,111,Write,ACK
5.465159400000000,153,208,0,Write,ACK
5.465254600000000,153,208,0,Write,ACK
5.465349800000000,153,208,0,Write,ACK
5.465444900000000,153,208,0,Write,ACK
5.465540000000000,153,208,0,Write,ACK
5.465635200000000,153,208,0,Write,ACK
5.465730400000000,153,208,0,Write,ACK
5.465825600000000,153,208,0,Write,ACK
5.465920700000000,153,208,0,Write,ACK
5.466015900000000,153,208,0,Write,ACK
5.466111100000000,153,208,0,Write,ACK
5.466206300000000,153,208,0,Write,ACK
5.466301400000000,153,208,0,Write,ACK
5.466396600000000,153,208,0,Write,ACK
5.466491800000000,153,208,0,Write,ACK
5.466587000000000,153,208,0,Write,ACK
5.466833600000000,154,208,109,Write,ACK
5.466928800000000,154,208,1,Write,ACK
5.467023900000000,154,208,144,Write,ACK
5.467265400000000,155,208,111,Write,ACK
5.467490700000000,156,209,0,Read,ACK
5.467586800000000,156,209,0,Read,ACK
5.467683000000000,156,209,0,Read,ACK
5.467779100000000,156,209,0,Read,ACK
5.467875300000000,156,209,0,Read,ACK
5.467971500000000,156,209,0,Read,ACK
5.468067700000000,156,209,0,Read,ACK
5.468163800000000,156,209,0,Read,ACK
5.468260000000000,156,209,0,Read,ACK
5.468356200000000,156,209,0,Read,ACK
5.468452400000000,156,209,0,Read,ACK
5.468548600000000,156,209,0,Read,ACK
5.468644700000000,156,209,0,Read,ACK
5.468740900000000,156,209,0,Read,ACK
5.468837100000000,156,209,0,Read,ACK
5.468933200000000,156,209,0,Read,NAK
5.469341200000000,157,208,109,Write,ACK
5.469436400000000,157,208,1,Write,ACK
5.469531500000000,157,208,160,Write,ACK
5.469838000000000,158,208,111,Write,ACK
5.469933200000000,158,208,0,Write,ACK
5.470028400000000,158,208,0,Write,ACK
5.470123500000000,158,208,0,Write,ACK
5.470218700000000,158,208,0,Write,ACK
5.470313900000000,158,208,0,Write,ACK
5.470409100000000,158,208,0,Write,ACK
5.470504300000000,158,208,0,Write,ACK
5.470599400000000,158,208,0,Write,ACK
5.470694600000000,158,208,0,Write,ACK
5.470789800000000,158,208,0,Write,ACK
5.470885000000000,158,208,0,Write,ACK
5.470980200000000,158,208,0,Write,ACK
5.471075300000000,158,208,0,Write,ACK
5.471170500000000,158,208,0,Write,ACK
5.471265700000000,158,208,16,Write,ACK
5.471360900000000,158,208,0,Write,ACK
5.471610600000000,159,208,109,Write,ACK
5.471705800000000,159,208,1,Write,ACK
5.471801000000000,159,208,160,Write,ACK
5.472042500000000,160,208,111,Write,ACK
5.472267700000000,161,209,0,Read,ACK
5.472363900000000,161,209,0,Read,ACK
5.472460100000000,161,209,0,Read,ACK
5.472556200000000,161,209,0,Read,ACK
5.472652300000000,161,209,0,Read,ACK
5.472748500000000,161,209,0,Read,ACK
5.472844700000000,161,209,0,Read,ACK
5.472940900000000,161,209,0,Read,ACK
5.473037000000000,161,209,0,Read,ACK
5.473133200000000,161,209,0,Read,ACK
5.473229400000000,161,209,0,Read,ACK
5.473325600000000,161,209,0,Read,ACK
5.473421800000000,161,209,0,Read,ACK
5.473517900000000,161,209,0,Read,ACK
5.473614100000000,161,209,16,Read,ACK
5.473710200000000,161,209,0,Read,NAK
5.474108300000000,162,208,109,Write,ACK
5.474203400000000,162,208,1,Write,ACK
5.474298600000000,162,208,176,Write,ACK
5.474605100000000,163,208,111,Write,ACK
5.474700200000000,163,208,64,Write,ACK
5.474795400000000,163,208,0,Write,ACK
5.474890600000000,163,208,0,Write,ACK
5.474985700000000,163,208,0,Write,ACK
5.475080900000000,163,208,0,Write,ACK
5.475176100000000,163,208,0,Write,ACK
5.475271300000000,163,208,0,Write,ACK
5.475366500000000,163,208,6,Write,ACK
5.475461600000000,163,208,0,Write,ACK
5.475556800000000,163,208,0,Write,ACK
5.475652000000000,163,208,178,Write,ACK
5.475747200000000,163,208,106,Write,ACK
5.475842400000000,163,208,0,Write,ACK
5.475937500000000,163,208,2,Write,ACK
5.476032700000000,163,208,0,Write,ACK
5.476127900000000,163,208,0,Write,ACK
5.476374500000000,164,208,109,Write,ACK
5.476469700000000,164,208,1,Write,ACK
5.476564900000000,164,208,176,Write,ACK
5.476806400000000,165,208,111,Write,ACK
5.477031700000000,166,209,64,Read,ACK
5.477127800000000,166,209,0,Read,ACK
5.477224000000000,166,209,0,Read,ACK
5.477320200000000,166,209,0,Read,ACK
5.477416300000000,166,209,0,Read,ACK
5.477512500000000,166,209,0,Read,ACK
5.477608700000000,166,209,0,Read,ACK
5.477704900000000,166,209,6,Read,ACK
5.477801100000000,166,209,0,Read,ACK
5.477897200000000,166,209,0,Read,ACK
5.477993400000000,166,209,178,Read,ACK
5.478089600000000,166,209,106,Read,ACK
5.478185700000000,166,209,0,Read,ACK
5.478281900000000,166,209,2,Read,ACK
5.478378100000000,166,209,0,Read,ACK
5.478474200000000,166,209,0,Read,NAK
5.478877300000000,167,208,109,Write,ACK
5.478972500000000,167,208,1,Write,ACK
5.479067600000000,167,208,192,Write,ACK
5.479374200000000,168,208,111,Write,ACK
5.479469300000000,168,208,0,Write,ACK
5.479564500000000,168,208,1,Write,ACK
5.479659700000000,168,208,251,Write,ACK
5.479754900000000,168,208,131,Write,ACK
5.479850100000000,168,208,0,Write,ACK
5.479945200000000,168,208,104,Write,ACK
5.480040400000000,168,208,0,Write,ACK
5.480135600000000,168,208,0,Write,ACK
5.480230800000000,168,208,0,Write,ACK
5.480326000000000,168,208,217,Write,ACK
5.480421100000000,168,208,252,Write,ACK
5.480516300000000,168,208,0,Write,ACK
5.480611500000000,168,208,124,Write,ACK
5.480706700000000,168,208,241,Write,ACK
5.480801900000000,168,208,255,Write,ACK
5.480897000000000,168,208,131,Write,ACK
5.481143600000000,169,208,109,Write,ACK
5.481238800000000,169,208,1,Write,ACK
5.481334000000000,169,208,192,Write,ACK
5.481575500000000,170,208,111,Write,ACK
5.481800700000000,171,209,0,Read,ACK
5.481896800000000,171,209,1,Read,ACK
5.481993000000000,171,209,251,Read,ACK
5.482089200000000,171,209,131,Read,ACK
5.482185400000000,171,209,0,Read,ACK
5.482281500000000,171,209,104,Read,ACK
5.482377700000000,171,209,0,Read,ACK
5.482473900000000,171,209,0,Read,ACK
5.482570100000000,171,209,0,Read,ACK
5.482666300000000,171,209,217,Read,ACK
5.482762400000000,171,209,252,Read,ACK
5.482858600000000,171,209,0,Read,ACK
5.482954800000000,171,209,124,Read,ACK
5.483051000000000,171,209,241,Read,ACK
5.483147100000000,171,209,255,Read,ACK
5.483243300000000,171,209,131,Read,NAK
5.483641300000000,172,208,109,Write,ACK
5.483736500000000,172,208,1,Write,ACK
5.483831600000000,172,208,208,Write,ACK
5.484138100000000,173,208,111,Write,ACK
5.484233200000000,173,208,0,Write,ACK
5.484328400000000,173,208,0,Write,ACK
5.484423600000000,173,208,0,Write,ACK
5.484518800000000,173,208,0,Write,ACK
5.484614000000000,173,208,0,Write,ACK
5.484709100000000,173,208,101,Write,ACK
5.484804300000000,173,208,0,Write,ACK
5.484899500000000,173,208,0,Write,ACK
5.484994700000000,173,208,0,Write,ACK
5.485089800000000,173,208,100,Write,ACK
5.485185000000000,173,208,3,Write,ACK
5.485280200000000,173,208,232,Write,ACK
5.485375400000000,173,208,0,Write,ACK
5.485470600000000,173,208,100,Write,ACK
5.485565700000000,173,208,0,Write,ACK
5.485660900000000,173,208,40,Write,ACK
5.485907500000000,174,208,109,Write,ACK
5.486002700000000,174,208,1,Write,ACK
5.486102400000000,174,208,208,Write,ACK
5.486343900000000,175,208,111,Write,ACK
5.486569200000000,176,209,0,Read,ACK
5.486665400000000,176,209,0,Read,ACK
5.486761600000000,176,209,0,Read,ACK
5.486857800000000,176,209,0,Read,ACK
5.486953900000000,176,209,0,Read,ACK
5.487050100000000,176,209,101,Read,ACK
5.487146300000000,176,209,0,Read,ACK
5.487242500000000,176,209,0,Read,ACK
5.487338600000000,176,209,0,Read,ACK
5.487434800000000,176,209,100,Read,ACK
5.487531000000000,176,209,3,Read,ACK
5.487627200000000,176,209,232,Read,ACK
5.487723400000000,176,209,0,Read,ACK
5.487819500000000,176,209,100,Read,ACK
5.487915700000000,176,209,0,Read,ACK
5.488011800000000,176,209,40,Read,NAK
5.488409900000000,177,208,109,Write,ACK
5.488505000000000,177,208,1,Write,ACK
5.488600200000000,177,208,224,Write,ACK
5.488906800000000,178,208,111,Write,ACK
5.489001900000000,178,208,0,Write,ACK
5.489102800000000,178,208,0,Write,ACK
5.489197900000000,178,208,0,Write,ACK
5.489293100000000,178,208,37,Write,ACK
5.489388300000000,178,208,0,Write,ACK
5.489483500000000,178,208,0,Write,ACK
5.489578600000000,178,208,0,Write,ACK
5.489673800000000,178,208,0,Write,ACK
5.489769000000000,178,208,22,Write,ACK
5.489864200000000,178,208,160,Write,ACK
5.489959300000000,178,208,0,Write,ACK
5.490054400000000,178,208,0,Write,ACK
5.490149600000000,178,208,0,Write,ACK
5.490244800000000,178,208,0,Write,ACK
5.490339900000000,178,208,16,Write,ACK
5.490435100000000,178,208,0,Write,ACK
5.490681700000000,179,208,109,Write,ACK
5.490776900000000,179,208,1,Write,ACK
5.490872100000000,179,208,224,Write,ACK
5.491114800000000,180,208,111,Write,ACK
5.491340100000000,181,209,0,Read,ACK
5.491436300000000,181,209,0,Read,ACK
5.491532500000000,181,209,0,Read,ACK
5.491628600000000,181,209,37,Read,ACK
5.491724800000000,181,209,0,Read,ACK
5.491821000000000,181,209,0,Read,ACK
5.491917200000000,181,209,0,Read,ACK
5.492013300000000,181,209,0,Read,ACK
5.492109400000000,181,209,22,Read,ACK
5.492205600000000,181,209,160,Read,ACK
5.492301800000000,181,209,0,Read,ACK
5.492398000000000,181,209,0,Read,ACK
5.492494100000000,181,209,0,Read,ACK
5.492590300000000,181,209,0,Read,ACK
5.492686500000000,181,209,16,Read,ACK
5.492782600000000,181,209,0,Read,NAK
5.493185600000000,182,208,109,Write,ACK
5.493280800000000,182,208,1,Write,ACK
5.493376000000000,182,208,240,Write,ACK
5.493682500000000,183,208,111,Write,ACK
5.493777700000000,183,208,0,Write,ACK
5.493872900000000,183,208,0,Write,ACK
5.493968100000000,183,208,16,Write,ACK
5.494063200000000,183,208,0,Write,ACK
5.494158300000000,183,208,0,Write,ACK
5.494253500000000,183,208,47,Write,ACK
5.494348700000000,183,208,0,Write,ACK
5.494443800000000,183,208,0,Write,ACK
5.494539000000000,183,208,0,Write,ACK
5.494634200000000,183,208,0,Write,ACK
5.494729400000000,183,208,1,Write,ACK
5.494824500000000,183,208,244,Write,ACK
5.494919700000000,183,208,0,Write,ACK
5.495014900000000,183,208,0,Write,ACK
5.495110100000000,183,208,16,Write,ACK
5.495205300000000,183,208,0,Write,ACK
5.495451900000000,184,208,109,Write,ACK
5.495547000000000,184,208,1,Write,ACK
5.495642200000000,184,208,240,Write,ACK
5.495883700000000,185,208,111,Write,ACK
5.496109000000000,186,209,0,Read,ACK
5.496205200000000,186,209,0,Read,ACK
5.496301400000000,186,209,16,Read,ACK
5.496397500000000,186,209,0,Read,ACK
5.496493700000000,186,209,0,Read,ACK
5.496589900000000,186,209,47,Read,ACK
5.496686100000000,186,209,0,Read,ACK
5.496782300000000,186,209,0,Read,ACK
5.496878400000000,186,209,0,Read,ACK
5.496974600000000,186,209,0,Read,ACK
5.497070800000000,186,209,1,Read,ACK
5.497167000000000,186,209,244,Read,ACK
5.497263100000000,186,209,0,Read,ACK
5.497359300000000,186,209,0,Read,ACK
5.497455500000000,186,209,16,Read,ACK
5.497551600000000,186,209,0,Read,NAK
5.497949700000000,187,208,109,Write,ACK
5.498044900000000,187,208,2,Write,ACK
5.498140100000000,187,208,0,Write,ACK
5.498446600000000,188,208,111,Write,ACK
5.498541800000000,188,208,0,Write,ACK
5.498637000000000,188,208,40,Write,ACK
5.498732100000000,188,208,0,Write,ACK
5.498827300000000,188,208,0,Write,ACK
5.498922500000000,188,208,255,Write,ACK
5.499017700000000,188,208,255,Write,ACK
5.499112800000000,188,208,69,Write,ACK
5.499207900000000,188,208,129,Write,ACK
5.499303000000000,188,208,255,Write,ACK
5.499398200000000,188,208,255,Write,ACK
5.499493400000000,188,208,250,Write,ACK
5.499588600000000,188,208,114,Write,ACK
5.499683700000000,188,208,0,Write,ACK
5.499778900000000,188,208,0,Write,ACK
5.499874100000000,188,208,0,Write,ACK
5.499969300000000,188,208,0,Write,ACK
5.500225900000000,189,208,109,Write,ACK
5.500321100000000,189,208,2,Write,ACK
5.500416200000000,189,208,0,Write,ACK
5.500657800000000,190,208,111,Write,ACK
5.500883100000000,191,209,0,Read,ACK
5.500979300000000,191,209,40,Read,ACK
5.501075400000000,191,209,0,Read,ACK
5.501171600000000,191,209,0,Read,ACK
5.501267700000000,191,209,255,Read,ACK
5.501363800000000,191,209,255,Read,ACK
5.501460000000000,191,209,69,Read,ACK
5.501556100000000,191,209,129,Read,ACK
5.501652300000000,191,209,255,Read,ACK
5.501748500000000,191,209,255,Read,ACK
5.501844700000000,191,209,250,Read,ACK
5.501940900000000,191,209,114,Read,ACK
5.502037000000000,191,209,0,Read,ACK
5.502133200000000,191,209,0,Read,ACK
5.502232500000000,191,209,0,Read,ACK
5.502328600000000,191,209,0,Read,NAK
5.502726700000000,192,208,109,Write,ACK
5.502821900000000,192,208,2,Write,ACK
5.502917100000000,192,208,16,Write,ACK
5.503228600000000,193,208,111,Write,ACK
5.503323700000000,193,208,0,Write,ACK
5.503418800000000,193,208,0,Write,ACK
5.503514000000000,193,208,0,Write,ACK
5.503609100000000,193,208,0,Write,ACK
5.503704300000000,193,208,0,Write,ACK
5.503799500000000,193,208,68,Write,ACK
5.503894700000000,193,208,0,Write,ACK
5.503989900000000,193,208,5,Write,ACK
5.504085000000000,193,208,0,Write,ACK
5.504180200000000,193,208,5,Write,ACK
5.504279300000000,193,208,186,Write,ACK
5.504374500000000,193,208,198,Write,ACK
5.504469700000000,193,208,0,Write,ACK
5.504564900000000,193,208,71,Write,ACK
5.504660100000000,193,208,120,Write,ACK
5.504755200000000,193,208,162,Write,ACK
5.505001800000000,194,208,109,Write,ACK
5.505097000000000,194,208,2,Write,ACK
5.505192100000000,194,208,16,Write,ACK
5.505438700000000,195,208,111,Write,ACK
5.505664000000000,196,209,0,Read,ACK
5.505760100000000,196,209,0,Read,ACK
5.505856300000000,196,209,0,Read,ACK
5.505952500000000,196,209,0,Read,ACK
5.506048700000000,196,209,0,Read,ACK
5.506144900000000,196,209,68,Read,ACK
5.506241000000000,196,209,0,Read,ACK
5.506337200000000,196,209,5,Read,ACK
5.506433400000000,196,209,0,Read,ACK
5.506529600000000,196,209,5,Read,ACK
5.506625800000000,196,209,186,Read,ACK
5.506721900000000,196,209,198,Read,ACK
5.506818100000000,196,209,0,Read,ACK
5.506914300000000,196,209,71,Read,ACK
5.507010500000000,196,209,120,Read,ACK
5.507106600000000,196,209,162,Read,NAK
5.507509700000000,197,208,109,Write,ACK
5.507604900000000,197,208,2,Write,ACK
5.507700000000000,197,208,32,Write,ACK
5.508006600000000,198,208,111,Write,ACK
5.508105400000000,198,208,0,Write,ACK
5.508200600000000,198,208,0,Write,ACK
5.508295800000000,198,208,0,Write,ACK
5.508390900000000,198,208,1,Write,ACK
5.508486000000000,198,208,0,Write,ACK
5.508581200000000,198,208,0,Write,ACK
5.508676400000000,198,208,0,Write,ACK
5.508771600000000,198,208,0,Write,ACK
5.508866700000000,198,208,0,Write,ACK
5.508961900000000,198,208,0,Write,ACK
5.509057100000000,198,208,6,Write,ACK
5.509152300000000,198,208,0,Write,ACK
5.509247500000000,198,208,0,Write,ACK
5.509342600000000,198,208,0,Write,ACK
5.509437800000000,198,208,0,Write,ACK
5.509533000000000,198,208,20,Write,ACK
5.509779600000000,199,208,109,Write,ACK
5.509874800000000,199,208,2,Write,ACK
5.509970000000000,199,208,32,Write,ACK
5.510216400000000,200,208,111,Write,ACK
5.510441700000000,201,209,0,Read,ACK
5.510537800000000,201,209,0,Read,ACK
5.510634000000000,201,209,0,Read,ACK
5.510730100000000,201,209,1,Read,ACK
5.510826300000000,201,209,0,Read,ACK
5.510922500000000,201,209,0,Read,ACK
5.511018700000000,201,209,0,Read,ACK
5.511114900000000,201,209,0,Read,ACK
5.511211000000000,201,209,0,Read,ACK
5.511307200000000,201,209,0,Read,ACK
5.511403400000000,201,209,6,Read,ACK
5.511499600000000,201,209,0,Read,ACK
5.511595800000000,201,209,0,Read,ACK
5.511691900000000,201,209,0,Read,ACK
5.511788100000000,201,209,0,Read,ACK
5.511884200000000,201,209,20,Read,NAK
5.512292300000000,202,208,109,Write,ACK
5.512387400000000,202,208,2,Write,ACK
5.512482600000000,202,208,48,Write,ACK
5.512789000000000,203,208,111,Write,ACK
5.512884200000000,203,208,0,Write,ACK
5.512979400000000,203,208,0,Write,ACK
5.513074600000000,203,208,37,Write,ACK
5.513169700000000,203,208,77,Write,ACK
5.513264900000000,203,208,0,Write,ACK
5.513360100000000,203,208,47,Write,ACK
5.513455300000000,203,208,112,Write,ACK
5.513550500000000,203,208,109,Write,ACK
5.513645600000000,203,208,0,Write,ACK
5.513740800000000,203,208,0,Write,ACK
5.513836000000000,203,208,5,Write,ACK
5.513931200000000,203,208,174,Write,ACK
5.514026400000000,203,208,0,Write,ACK
5.514121500000000,203,208,12,Write,ACK
5.514216700000000,203,208,2,Write,ACK
5.514311900000000,203,208,208,Write,ACK
5.514558500000000,204,208,109,Write,ACK
5.514653700000000,204,208,2,Write,ACK
5.514748900000000,204,208,48,Write,ACK
5.514990400000000,205,208,111,Write,ACK
5.515220600000000,206,209,0,Read,ACK
5.515316800000000,206,209,0,Read,ACK
5.515413000000000,206,209,37,Read,ACK
5.515509200000000,206,209,77,Read,ACK
5.515605300000000,206,209,0,Read,ACK
5.515701400000000,206,209,47,Read,ACK
5.515797600000000,206,209,112,Read,ACK
5.515893700000000,206,209,109,Read,ACK
5.515989900000000,206,209,0,Read,ACK
5.516086100000000,206,209,0,Read,ACK
5.516182300000000,206,209,5,Read,ACK
5.516278500000000,206,209,174,Read,ACK
5.516374600000000,206,209,0,Read,ACK
5.516470800000000,206,209,12,Read,ACK
5.516567300000000,206,209,2,Read,ACK
5.516663400000000,206,209,208,Read,NAK
5.517061500000000,207,208,109,Write,ACK
5.517156600000000,207,208,2,Write,ACK
5.517251800000000,207,208,64,Write,ACK
5.517558400000000,208,208,111,Write,ACK
5.517653500000000,208,208,0,Write,ACK
5.517748600000000,208,208,0,Write,ACK
5.517843800000000,208,208,0,Write,ACK
5.517938900000000,208,208,0,Write,ACK
5.518034100000000,208,208,0,Write,ACK
5.518129300000000,208,208,0,Write,ACK
5.518224500000000,208,208,0,Write,ACK
5.518319700000000,208,208,0,Write,ACK
5.518414800000000,208,208,0,Write,ACK
5.518510000000000,208,208,0,Write,ACK
5.518605200000000,208,208,0,Write,ACK
5.518700400000000,208,208,0,Write,ACK
5.518795600000000,208,208,0,Write,ACK
5.518890700000000,208,208,0,Write,ACK
5.518985900000000,208,208,0,Write,ACK
5.519081100000000,208,208,0,Write,ACK
5.519327700000000,209,208,109,Write,ACK
5.519422900000000,209,208,2,Write,ACK
5.519518100000000,209,208,64,Write,ACK
5.519764600000000,210,208,111,Write,ACK
5.519989900000000,211,209,0,Read,ACK
5.520086100000000,211,209,0,Read,ACK
5.520182200000000,211,209,0,Read,ACK
5.520278400000000,211,209,0,Read,ACK
5.520374500000000,211,209,0,Read,ACK
5.520470700000000,211,209,0,Read,ACK
5.520566900000000,211,209,0,Read,ACK
5.520663200000000,211,209,0,Read,ACK
5.520759400000000,211,209,0,Read,ACK
5.520855600000000,211,209,0,Read,ACK
5.520951700000000,211,209,0,Read,ACK
5.521047900000000,211,209,0,Read,ACK
5.521144100000000,211,209,0,Read,ACK
5.521240300000000,211,209,0,Read,ACK
5.521336500000000,211,209,0,Read,ACK
5.521432600000000,211,209,0,Read,NAK
5.521835700000000,212,208,109,Write,ACK
5.521930800000000,212,208,2,Write,ACK
5.522026000000000,212,208,80,Write,ACK
5.522332500000000,213,208,111,Write,ACK
5.522427700000000,213,208,0,Write,ACK
5.522522900000000,213,208,27,Write,ACK
5.522618000000000,213,208,0,Write,ACK
5.522713100000000,213,208,0,Write,ACK
5.522808300000000,213,208,0,Write,ACK
5.522903400000000,213,208,0,Write,ACK
5.522998600000000,213,208,0,Write,ACK
5.523093800000000,213,208,0,Write,ACK
5.523189000000000,213,208,0,Write,ACK
5.523284200000000,213,208,0,Write,ACK
5.523379300000000,213,208,0,Write,ACK
5.523474500000000,213,208,0,Write,ACK
5.523569700000000,213,208,0,Write,ACK
5.523664900000000,213,208,0,Write,ACK
5.523760100000000,213,208,0,Write,ACK
5.523855200000000,213,208,0,Write,ACK
5.524108400000000,214,208,109,Write,ACK
5.524203600000000,214,208,2,Write,ACK
5.524298800000000,214,208,80,Write,ACK
5.524540200000000,215,208,111,Write,ACK
5.524765500000000,216,209,0,Read,ACK
5.524861600000000,216,209,27,Read,ACK
5.524957800000000,216,209,0,Read,ACK
5.525053900000000,216,209,0,Read,ACK
5.525150100000000,216,209,0,Read,ACK
5.525246300000000,216,209,0,Read,ACK
5.525342500000000,216,209,0,Read,ACK
5.525438700000000,216,209,0,Read,ACK
5.525534800000000,216,209,0,Read,ACK
5.525631000000000,216,209,0,Read,ACK
5.525727200000000,216,209,0,Read,ACK
5.525823400000000,216,209,0,Read,ACK
5.525919600000000,216,209,0,Read,ACK
5.526015700000000,216,209,0,Read,ACK
5.526111900000000,216,209,0,Read,ACK
5.526208000000000,216,209,0,Read,NAK
5.526606100000000,217,208,109,Write,ACK
5.526701200000000,217,208,2,Write,ACK
5.526796400000000,217,208,96,Write,ACK
5.527108800000000,218,208,111,Write,ACK
5.527203900000000,218,208,0,Write,ACK
5.527299100000000,218,208,100,Write,ACK
5.527394300000000,218,208,0,Write,ACK
5.527489500000000,218,208,0,Write,ACK
5.527584700000000,218,208,0,Write,ACK
5.527679800000000,218,208,8,Write,ACK
5.527775000000000,218,208,0,Write,ACK
5.527870200000000,218,208,0,Write,ACK
5.527965400000000,218,208,0,Write,ACK
5.528060500000000,218,208,0,Write,ACK
5.528155700000000,218,208,0,Write,ACK
5.528250900000000,218,208,0,Write,ACK
5.528346100000000,218,208,0,Write,ACK
5.528441300000000,218,208,0,Write,ACK
5.528536400000000,218,208,0,Write,ACK
5.528631600000000,218,208,0,Write,ACK
5.528878200000000,219,208,109,Write,ACK
5.528973400000000,219,208,2,Write,ACK
5.529068600000000,219,208,96,Write,ACK
5.529310100000000,220,208,111,Write,ACK
5.529535400000000,221,209,0,Read,ACK
5.529631500000000,221,209,100,Read,ACK
5.529727700000000,221,209,0,Read,ACK
5.529823900000000,221,209,0,Read,ACK
5.529920000000000,221,209,0,Read,ACK
5.530016100000000,221,209,8,Read,ACK
5.530112300000000,221,209,0,Read,ACK
5.530208500000000,221,209,0,Read,ACK
5.530304700000000,221,209,0,Read,ACK
5.530400800000000,221,209,0,Read,ACK
5.530497000000000,221,209,0,Read,ACK
5.530593200000000,221,209,0,Read,ACK
5.530689400000000,221,209,0,Read,ACK
5.530785600000000,221,209,0,Read,ACK
5.530881700000000,221,209,0,Read,ACK
5.530977900000000,221,209,0,Read,NAK
5.531385900000000,222,208,109,Write,ACK
5.531481100000000,222,208,2,Write,ACK
5.531576200000000,222,208,112,Write,ACK
5.531882800000000,223,208,111,Write,ACK
5.531977900000000,223,208,0,Write,ACK
5.532073000000000,223,208,0,Write,ACK
5.532168200000000,223,208,0,Write,ACK
5.532263400000000,223,208,0,Write,ACK
5.532358500000000,223,208,0,Write,ACK
5.532453700000000,223,208,0,Write,ACK
5.532548900000000,223,208,0,Write,ACK
5.532644100000000,223,208,0,Write,ACK
5.532739300000000,223,208,0,Write,ACK
5.532834400000000,223,208,0,Write,ACK
5.532929600000000,223,208,0,Write,ACK
5.533024800000000,223,208,0,Write,ACK
5.533120000000000,223,208,0,Write,ACK
5.533215200000000,223,208,0,Write,ACK
5.533310300000000,223,208,0,Write,ACK
5.533405500000000,223,208,0,Write,ACK
5.533652100000000,224,208,109,Write,ACK
5.533747300000000,224,208,2,Write,ACK
5.533842500000000,224,208,112,Write,ACK
5.534089000000000,225,208,111,Write,ACK
5.534314200000000,226,209,0,Read,ACK
5.534410400000000,226,209,0,Read,ACK
5.534506600000000,226,209,0,Read,ACK
5.534602800000000,226,209,0,Read,ACK
5.534699000000000,226,209,0,Read,ACK
5.534795100000000,226,209,0,Read,ACK
5.534891300000000,226,209,0,Read,ACK
5.534987500000000,226,209,0,Read,ACK
5.535083600000000,226,209,0,Read,ACK
5.535179700000000,226,209,0,Read,ACK
5.535275900000000,226,209,0,Read,ACK
5.535372100000000,226,209,0,Read,ACK
5.535468300000000,226,209,0,Read,ACK
5.535564400000000,226,209,0,Read,ACK
5.535660600000000,226,209,0,Read,ACK
5.535756700000000,226,209,0,Read,NAK
5.536159800000000,227,208,109,Write,ACK
5.536254900000000,227,208,2,Write,ACK
5.536350100000000,227,208,128,Write,ACK
5.536656700000000,228,208,111,Write,ACK
5.536751800000000,228,208,0,Write,ACK
5.536847000000000,228,208,0,Write,ACK
5.536942200000000,228,208,0,Write,ACK
5.537037400000000,228,208,0,Write,ACK
5.537132600000000,228,208,0,Write,ACK
5.537227700000000,228,208,0,Write,ACK
5.537322900000000,228,208,0,Write,ACK
5.537418100000000,228,208,0,Write,ACK
5.537513300000000,228,208,0,Write,ACK
5.537608500000000,228,208,0,Write,ACK
5.537703600000000,228,208,0,Write,ACK
5.537798800000000,228,208,0,Write,ACK
5.537894000000000,228,208,0,Write,ACK
5.537989200000000,228,208,0,Write,ACK
5.538084300000000,228,208,0,Write,ACK
5.538179400000000,228,208,0,Write,ACK
5.538426000000000,229,208,109,Write,ACK
5.538521200000000,229,208,2,Write,ACK
5.538616400000000,229,208,128,Write,ACK
5.538857800000000,230,208,111,Write,ACK
5.539083100000000,231,209,0,Read,ACK
5.539179300000000,231,209,0,Read,ACK
5.539275500000000,231,209,0,Read,ACK
5.539371700000000,231,209,0,Read,ACK
5.539467900000000,231,209,0,Read,ACK
5.539564000000000,231,209,0,Read,ACK
5.539660200000000,231,209,0,Read,ACK
5.539756400000000,231,209,0,Read,ACK
5.539852600000000,231,209,0,Read,ACK
5.539948700000000,231,209,0,Read,ACK
5.540044900000000,231,209,0,Read,ACK
5.540141100000000,231,209,0,Read,ACK
5.540237300000000,231,209,0,Read,ACK
5.540333500000000,231,209,0,Read,ACK
5.540429600000000,231,209,0,Read,ACK
5.540525800000000,231,209,0,Read,NAK
5.540923800000000,232,208,109,Write,ACK
5.541019000000000,232,208,2,Write,ACK
5.541114100000000,232,208,144,Write,ACK
5.541420600000000,233,208,111,Write,ACK
5.541515700000000,233,208,0,Write,ACK
5.541610900000000,233,208,0,Write,ACK
5.541706100000000,233,208,0,Write,ACK
5.541801300000000,233,208,0,Write,ACK
5.541896400000000,233,208,0,Write,ACK
5.541991600000000,233,208,0,Write,ACK
5.542086800000000,233,208,0,Write,ACK
5.542182000000000,233,208,0,Write,ACK
5.542277200000000,233,208,0,Write,ACK
5.542372300000000,233,208,0,Write,ACK
5.542467500000000,233,208,0,Write,ACK
5.542562700000000,233,208,0,Write,ACK
5.542657900000000,233,208,0,Write,ACK
5.542753100000000,233,208,0,Write,ACK
5.542848200000000,233,208,0,Write,ACK
5.542943400000000,233,208,0,Write,ACK
5.543190000000000,234,208,109,Write,ACK
5.543285200000000,234,208,2,Write,ACK
5.543380400000000,234,208,144,Write,ACK
5.543621900000000,235,208,111,Write,ACK
5.543847200000000,236,209,0,Read,ACK
5.543943400000000,236,209,0,Read,ACK
5.544039600000000,236,209,0,Read,ACK
5.544135700000000,236,209,0,Read,ACK
5.544231800000000,236,209,0,Read,ACK
5.544327900000000,236,209,0,Read,ACK
5.544424100000000,236,209,0,Read,ACK
5.544520300000000,236,209,0,Read,ACK
5.544616500000000,236,209,0,Read,ACK
5.544712600000000,236,209,0,Read,ACK
5.544808800000000,236,209,0,Read,ACK
5.544905000000000,236,209,0,Read,ACK
5.545001200000000,236,209,0,Read,ACK
5.545097400000000,236,209,0,Read,ACK
5.545193500000000,236,209,0,Read,ACK
5.545289600000000,236,209,0,Read,NAK
5.545687700000000,237,208,109,Write,ACK
5.545782900000000,237,208,2,Write,ACK
5.545878100000000,237,208,160,Write,ACK
5.546184600000000,238,208,111,Write,ACK
5.546279700000000,238,208,0,Write,ACK
5.546374800000000,238,208,0,Write,ACK
5.546470000000000,238,208,0,Write,ACK
5.546565200000000,238,208,0,Write,ACK
5.546660300000000,238,208,0,Write,ACK
5.546755500000000,238,208,0,Write,ACK
5.546850700000000,238,208,0,Write,ACK
5.546945900000000,238,208,0,Write,ACK
5.547041100000000,238,208,0,Write,ACK
5.547136200000000,238,208,0,Write,ACK
5.547231400000000,238,208,0,Write,ACK
5.547326600000000,238,208,0,Write,ACK
5.547421800000000,238,208,0,Write,ACK
5.547517000000000,238,208,0,Write,ACK
5.547612100000000,238,208,0,Write,ACK
5.547707300000000,238,208,0,Write,ACK
5.547953900000000,239,208,109,Write,ACK
5.548049100000000,239,208,2,Write,ACK
5.548144300000000,239,208,160,Write,ACK
5.548385800000000,240,208,111,Write,ACK
5.548611100000000,241,209,0,Read,ACK
5.548707300000000,241,209,0,Read,ACK
5.548803500000000,241,209,0,Read,ACK
5.548899600000000,241,209,0,Read,ACK
5.548995800000000,241,209,0,Read,ACK
5.549092000000000,241,209,0,Read,ACK
5.549188100000000,241,209,0,Read,ACK
5.549284300000000,241,209,0,Read,ACK
5.549380400000000,241,209,0,Read,ACK
5.549476500000000,241,209,0,Read,ACK
5.549572700000000,241,209,0,Read,ACK
5.549668900000000,241,209,0,Read,ACK
5.549765100000000,241,209,0,Read,ACK
5.549861200000000,241,209,0,Read,ACK
5.549957400000000,241,209,0,Read,ACK
5.550053500000000,241,209,0,Read,NAK
5.550451600000000,242,208,109,Write,ACK
5.550546800000000,242,208,2,Write,ACK
5.550642000000000,242,208,176,Write,ACK
5.550948500000000,243,208,111,Write,ACK
5.551043700000000,243,208,0,Write,ACK
5.551138800000000,243,208,0,Write,ACK
5.551234000000000,243,208,0,Write,ACK
5.551329200000000,243,208,0,Write,ACK
5.551424300000000,243,208,0,Write,ACK
5.551519400000000,243,208,0,Write,ACK
5.551614600000000,243,208,0,Write,ACK
5.551709800000000,243,208,0,Write,ACK
5.551804900000000,243,208,0,Write,ACK
5.551900100000000,243,208,0,Write,ACK
5.551995300000000,243,208,0,Write,ACK
5.552090500000000,243,208,0,Write,ACK
5.552185700000000,243,208,0,Write,ACK
5.552280800000000,243,208,0,Write,ACK
5.552376000000000,243,208,0,Write,ACK
5.552471200000000,243,208,0,Write,ACK
5.552717800000000,244,208,109,Write,ACK
5.552813000000000,244,208,2,Write,ACK
5.552908200000000,244,208,176,Write,ACK
5.553149600000000,245,208,111,Write,ACK
5.553374900000000,246,209,0,Read,ACK
5.553471100000000,246,209,0,Read,ACK
5.553567200000000,246,209,0,Read,ACK
5.553663300000000,246,209,0,Read,ACK
5.553759500000000,246,209,0,Read,ACK
5.553855700000000,246,209,0,Read,ACK
5.553951900000000,246,209,0,Read,ACK
5.554048100000000,246,209,0,Read,ACK
5.554144200000000,246,209,0,Read,ACK
5.554240400000000,246,209,0,Read,ACK
5.554336600000000,246,209,0,Read,ACK
5.554432800000000,246,209,0,Read,ACK
5.554529000000000,246,209,0,Read,ACK
5.554625100000000,246,209,0,Read,ACK
5.554721300000000,246,209,0,Read,ACK
5.554817400000000,246,209,0,Read,NAK
5.555225500000000,247,208,109,Write,ACK
5.555320600000000,247,208,2,Write,ACK
5.555415800000000,247,208,192,Write,ACK
5.555722200000000,248,208,111,Write,ACK
5.555817400000000,248,208,0,Write,ACK
5.555912600000000,248,208,27,Write,ACK
5.556007800000000,248,208,0,Write,ACK
5.556102900000000,248,208,0,Write,ACK
5.556198100000000,248,208,0,Write,ACK
5.556293300000000,248,208,0,Write,ACK
5.556388500000000,248,208,0,Write,ACK
5.556483700000000,248,208,0,Write,ACK
5.556578800000000,248,208,0,Write,ACK
5.556674000000000,248,208,0,Write,ACK
5.556769200000000,248,208,0,Write,ACK
5.556864400000000,248,208,0,Write,ACK
5.556959600000000,248,208,0,Write,ACK
5.557054700000000,248,208,14,Write,ACK
5.557149900000000,248,208,0,Write,ACK
5.557245100000000,248,208,14,Write,ACK
5.557491700000000,249,208,109,Write,ACK
5.557586900000000,249,208,2,Write,ACK
5.557682100000000,249,208,192,Write,ACK
5.557923600000000,250,208,111,Write,ACK
5.558148800000000,251,209,0,Read,ACK
5.558245000000000,251,209,27,Read,ACK
5.558341200000000,251,209,0,Read,ACK
5.558437400000000,251,209,0,Read,ACK
5.558533500000000,251,209,0,Read,ACK
5.558629700000000,251,209,0,Read,ACK
5.558725800000000,251,209,0,Read,ACK
5.558822000000000,251,209,0,Read,ACK
5.558918100000000,251,209,0,Read,ACK
5.559014300000000,251,209,0,Read,ACK
5.559113100000000,251,209,0,Read,ACK
5.559209300000000,251,209,0,Read,ACK
5.559305500000000,251,209,0,Read,ACK
5.559401700000000,251,209,14,Read,ACK
5.559497800000000,251,209,0,Read,ACK
5.559593900000000,251,209,14,Read,NAK
5.559991900000000,252,208,109,Write,ACK
5.560087100000000,252,208,2,Write,ACK
5.560182200000000,252,208,208,Write,ACK
5.560488700000000,253,208,111,Write,ACK
5.560583900000000,253,208,0,Write,ACK
5.560679000000000,253,208,0,Write,ACK
5.560774200000000,253,208,10,Write,ACK
5.560869300000000,253,208,199,Write,ACK
5.560964500000000,253,208,0,Write,ACK
5.561059700000000,253,208,4,Write,ACK
5.561154900000000,253,208,0,Write,ACK
5.561250100000000,253,208,0,Write,ACK
5.561345200000000,253,208,0,Write,ACK
5.561440400000000,253,208,0,Write,ACK
5.561535600000000,253,208,0,Write,ACK
5.561630800000000,253,208,50,Write,ACK
5.561725900000000,253,208,255,Write,ACK
5.561821100000000,253,208,255,Write,ACK
5.561916300000000,253,208,255,Write,ACK
5.562011500000000,253,208,156,Write,ACK
5.562264000000000,254,208,109,Write,ACK
5.562359200000000,254,208,2,Write,ACK
5.562454400000000,254,208,208,Write,ACK
5.562695900000000,255,208,111,Write,ACK
5.562921200000000,256,209,0,Read,ACK
5.563017400000000,256,209,0,Read,ACK
5.563113800000000,256,209,10,Read,ACK
5.563210000000000,256,209,199,Read,ACK
5.563306200000000,256,209,0,Read,ACK
5.563402400000000,256,209,4,Read,ACK
5.563498500000000,256,209,0,Read,ACK
5.563594700000000,256,209,0,Read,ACK
5.563690900000000,256,209,0,Read,ACK
5.563787100000000,256,209,0,Read,ACK
5.563883300000000,256,209,0,Read,ACK
5.563979400000000,256,209,50,Read,ACK
5.564075600000000,256,209,255,Read,ACK
5.564171700000000,256,209,255,Read,ACK
5.564267900000000,256,209,255,Read,ACK
5.564364000000000,256,209,156,Read,NAK
5.564762100000000,257,208,109,Write,ACK
5.564857300000000,257,208,2,Write,ACK
5.564952500000000,257,208,224,Write,ACK
5.565264000000000,258,208,111,Write,ACK
5.565359200000000,258,208,0,Write,ACK
5.565454400000000,258,208,0,Write,ACK
5.565549500000000,258,208,11,Write,ACK
5.565644700000000,258,208,43,Write,ACK
5.565739900000000,258,208,0,Write,ACK
5.565835100000000,258,208,0,Write,ACK
5.565930300000000,258,208,0,Write,ACK
5.566025400000000,258,208,2,Write,ACK
5.566120600000000,258,208,0,Write,ACK
5.566215800000000,258,208,0,Write,ACK
5.566311000000000,258,208,0,Write,ACK
5.566406200000000,258,208,1,Write,ACK
5.566501300000000,258,208,0,Write,ACK
5.566596500000000,258,208,0,Write,ACK
5.566691700000000,258,208,0,Write,ACK
5.566786900000000,258,208,100,Write,ACK
5.567033500000000,259,208,109,Write,ACK
5.567128700000000,259,208,2,Write,ACK
5.567223800000000,259,208,224,Write,ACK
5.567465300000000,260,208,111,Write,ACK
5.567690600000000,261,209,0,Read,ACK
5.567786700000000,261,209,0,Read,ACK
5.567882800000000,261,209,11,Read,ACK
5.567979000000000,261,209,43,Read,ACK
5.568075200000000,261,209,0,Read,ACK
5.568171400000000,261,209,0,Read,ACK
5.568267600000000,261,209,0,Read,ACK
5.568363700000000,261,209,2,Read,ACK
5.568459900000000,261,209,0,Read,ACK
5.568556100000000,261,209,0,Read,ACK
5.568652300000000,261,209,0,Read,ACK
5.568748500000000,261,209,1,Read,ACK
5.568844600000000,261,209,0,Read,ACK
5.568940800000000,261,209,0,Read,ACK
5.569037000000000,261,209,0,Read,ACK
5.569133100000000,261,209,100,Read,NAK
5.569531100000000,262,208,109,Write,ACK
5.569626300000000,262,208,2,Write,ACK
5.569721500000000,262,208,240,Write,ACK
5.570027900000000,263,208,111,Write,ACK
5.570123100000000,263,208,255,Write,ACK
5.570218300000000,263,208,229,Write,ACK
5.570313400000000,263,208,0,Write,ACK
5.570408600000000,263,208,0,Write,ACK
5.570503800000000,263,208,0,Write,ACK
5.570599000000000,263,208,0,Write,ACK
5.570694200000000,263,208,0,Write,ACK
5.570789300000000,263,208,0,Write,ACK
5.570884500000000,263,208,0,Write,ACK
5.570979700000000,263,208,0,Write,ACK
5.571074900000000,263,208,0,Write,ACK
5.571170000000000,263,208,0,Write,ACK
5.571265200000000,263,208,0,Write,ACK
5.571360400000000,263,208,0,Write,ACK
5.571455600000000,263,208,0,Write,ACK
5.571550800000000,263,208,0,Write,ACK
5.571797400000000,264,208,109,Write,ACK
5.571892500000000,264,208,2,Write,ACK
5.571987700000000,264,208,240,Write,ACK
5.572234200000000,265,208,111,Write,ACK
5.572459500000000,266,209,255,Read,ACK
5.572555700000000,266,209,229,Read,ACK
5.572651900000000,266,209,0,Read,ACK
5.572748000000000,266,209,0,Read,ACK
5.572844200000000,266,209,0,Read,ACK
5.572940300000000,266,209,0,Read,ACK
5.573036400000000,266,209,0,Read,ACK
5.573132600000000,266,209,0,Read,ACK
5.573228800000000,266,209,0,Read,ACK
5.573325000000000,266,209,0,Read,ACK
5.573421200000000,266,209,0,Read,ACK
5.573517300000000,266,209,0,Read,ACK
5.573613500000000,266,209,0,Read,ACK
5.573709700000000,266,209,0,Read,ACK
5.573805900000000,266,209,0,Read,ACK
5.573906100000000,266,209,0,Read,NAK
5.574314100000000,267,208,109,Write,ACK
5.574409300000000,267,208,3,Write,ACK
5.574504400000000,267,208,0,Write,ACK
5.574811000000000,268,208,111,Write,ACK
5.574906200000000,268,208,0,Write,ACK
5.575001300000000,268,208,0,Write,ACK
5.575096400000000,268,208,0,Write,ACK
5.575191600000000,268,208,1,Write,ACK
5.575286700000000,268,208,0,Write,ACK
5.575381900000000,268,208,0,Write,ACK
5.575477100000000,268,208,0,Write,ACK
5.575572300000000,268,208,0,Write,ACK
5.575667500000000,268,208,0,Write,ACK
5.575762600000000,268,208,1,Write,ACK
5.575857800000000,268,208,0,Write,ACK
5.575953000000000,268,208,0,Write,ACK
5.576048200000000,268,208,0,Write,ACK
5.576143400000000,268,208,0,Write,ACK
5.576238500000000,268,208,0,Write,ACK
5.576333700000000,268,208,0,Write,ACK
5.576580300000000,269,208,109,Write,ACK
5.576675500000000,269,208,3,Write,ACK
5.576770700000000,269,208,0,Write,ACK
5.577012200000000,270,208,111,Write,ACK
5.577242400000000,271,209,0,Read,ACK
5.577338600000000,271,209,0,Read,ACK
5.577434800000000,271,209,0,Read,ACK
5.577531000000000,271,209,1,Read,ACK
5.577627200000000,271,209,0,Read,ACK
5.577723300000000,271,209,0,Read,ACK
5.577819500000000,271,209,0,Read,ACK
5.577915700000000,271,209,0,Read,ACK
5.578011800000000,271,209,0,Read,ACK
5.578107900000000,271,209,1,Read,ACK
5.578204100000000,271,209,0,Read,ACK
5.578300300000000,271,209,0,Read,ACK
5.578396500000000,271,209,0,Read,ACK
5.578492700000000,271,209,0,Read,ACK
5.578588800000000,271,209,0,Read,ACK
5.578684900000000,271,209,0,Read,NAK
5.579083000000000,272,208,109,Write,ACK
5.579178200000000,272,208,3,Write,ACK
5.579273300000000,272,208,16,Write,ACK
5.579579900000000,273,208,111,Write,ACK
5.579675000000000,273,208,0,Write,ACK
5.579770200000000,273,208,1,Write,ACK
5.579865400000000,273,208,128,Write,ACK
5.579960600000000,273,208,0,Write,ACK
5.580055700000000,273,208,0,Write,ACK
5.580150800000000,273,208,1,Write,ACK
5.580246000000000,273,208,128,Write,ACK
5.580341200000000,273,208,0,Write,ACK
5.580436400000000,273,208,0,Write,ACK
5.580531500000000,273,208,1,Write,ACK
5.580626700000000,273,208,128,Write,ACK
5.580721900000000,273,208,0,Write,ACK
5.580817100000000,273,208,0,Write,ACK
5.580912200000000,273,208,36,Write,ACK
5.581007400000000,273,208,38,Write,ACK
5.581102600000000,273,208,211,Write,ACK
5.581349200000000,274,208,109,Write,ACK
5.581444400000000,274,208,3,Write,ACK
5.581539600000000,274,208,16,Write,ACK
5.581781000000000,275,208,111,Write,ACK
5.582006300000000,276,209,0,Read,ACK
5.582102500000000,276,209,1,Read,ACK
5.582198600000000,276,209,128,Read,ACK
5.582294800000000,276,209,0,Read,ACK
5.582390900000000,276,209,0,Read,ACK
5.582487100000000,276,209,1,Read,ACK
5.582583300000000,276,209,128,Read,ACK
5.582679500000000,276,209,0,Read,ACK
5.582775600000000,276,209,0,Read,ACK
5.582871800000000,276,209,1,Read,ACK
5.582968000000000,276,209,128,Read,ACK
5.583064200000000,276,209,0,Read,ACK
5.583160400000000,276,209,0,Read,ACK
5.583256500000000,276,209,36,Read,ACK
5.583352700000000,276,209,38,Read,ACK
5.583448800000000,276,209,211,Read,NAK
5.583846900000000,277,208,109,Write,ACK
5.583942000000000,277,208,3,Write,ACK
5.584037200000000,277,208,32,Write,ACK
5.584348800000000,278,208,111,Write,ACK
5.584443900000000,278,208,0,Write,ACK
5.584539100000000,278,208,0,Write,ACK
5.584634300000000,278,208,0,Write,ACK
5.584729500000000,278,208,0,Write,ACK
5.584824700000000,278,208,0,Write,ACK
5.584919800000000,278,208,0,Write,ACK
5.585015000000000,278,208,0,Write,ACK
5.585115700000000,278,208,0,Write,ACK
5.585210900000000,278,208,0,Write,ACK
5.585306000000000,278,208,6,Write,ACK
5.585401200000000,278,208,0,Write,ACK
5.585496400000000,278,208,16,Write,ACK
5.585591600000000,278,208,0,Write,ACK
5.585686800000000,278,208,150,Write,ACK
5.585781900000000,278,208,0,Write,ACK
5.585877100000000,278,208,60,Write,ACK
5.586123700000000,279,208,109,Write,ACK
5.586218800000000,279,208,3,Write,ACK
5.586313900000000,279,208,32,Write,ACK
5.586555400000000,280,208,111,Write,ACK
5.586780700000000,281,209,0,Read,ACK
5.586876900000000,281,209,0,Read,ACK
5.586973100000000,281,209,0,Read,ACK
5.587069300000000,281,209,0,Read,ACK
5.587165400000000,281,209,0,Read,ACK
5.587261500000000,281,209,0,Read,ACK
5.587357600000000,281,209,0,Read,ACK
5.587453800000000,281,209,0,Read,ACK
5.587550000000000,281,209,0,Read,ACK
5.587646200000000,281,209,6,Read,ACK
5.587742300000000,281,209,0,Read,ACK
5.587838500000000,281,209,16,Read,ACK
5.587934700000000,281,209,0,Read,ACK
5.588030900000000,281,209,150,Read,ACK
5.588127000000000,281,209,0,Read,ACK
5.588223200000000,281,209,60,Read,NAK
5.588621300000000,282,208,109,Write,ACK
5.588716400000000,282,208,3,Write,ACK
5.588811600000000,282,208,48,Write,ACK
5.589118100000000,283,208,111,Write,ACK
5.589213300000000,283,208,0,Write,ACK
5.589308400000000,283,208,0,Write,ACK
5.589403500000000,283,208,0,Write,ACK
5.589498700000000,283,208,0,Write,ACK
5.589593900000000,283,208,0,Write,ACK
5.589689000000000,283,208,0,Write,ACK
5.589784200000000,283,208,0,Write,ACK
5.589879400000000,283,208,0,Write,ACK
5.589974600000000,283,208,0,Write,ACK
5.590069800000000,283,208,0,Write,ACK
5.590164900000000,283,208,0,Write,ACK
5.590260100000000,283,208,0,Write,ACK
5.590355300000000,283,208,0,Write,ACK
5.590450500000000,283,208,0,Write,ACK
5.590545600000000,283,208,0,Write,ACK
5.590640800000000,283,208,0,Write,ACK
5.590887400000000,284,208,109,Write,ACK
5.590982600000000,284,208,3,Write,ACK
5.591077800000000,284,208,48,Write,ACK
5.591319300000000,285,208,111,Write,ACK
5.591544600000000,286,209,0,Read,ACK
5.591640800000000,286,209,0,Read,ACK
5.591737000000000,286,209,0,Read,ACK
5.591833200000000,286,209,0,Read,ACK
5.591929300000000,286,209,0,Read,ACK
5.592025500000000,286,209,0,Read,ACK
5.592121600000000,286,209,0,Read,ACK
5.592217800000000,286,209,0,Read,ACK
5.592314000000000,286,209,0,Read,ACK
5.592410100000000,286,209,0,Read,ACK
5.592506200000000,286,209,0,Read,ACK
5.592602400000000,286,209,0,Read,ACK
5.592698600000000,286,209,0,Read,ACK
5.592794800000000,286,209,0,Read,ACK
5.592890900000000,286,209,0,Read,ACK
5.592987100000000,286,209,0,Read,NAK
5.593395100000000,287,208,109,Write,ACK
5.593490300000000,287,208,3,Write,ACK
5.593585500000000,287,208,64,Write,ACK
5.593892000000000,288,208,111,Write,ACK
5.593987200000000,288,208,12,Write,ACK
5.594082400000000,288,208,10,Write,ACK
5.594177500000000,288,208,78,Write,ACK
5.594272700000000,288,208,104,Write,ACK
5.594367900000000,288,208,205,Write,ACK
5.594463000000000,288,208,207,Write,ACK
5.594558100000000,288,208,119,Write,ACK
5.594653300000000,288,208,9,Write,ACK
5.594748500000000,288,208,80,Write,ACK
5.594843600000000,288,208,22,Write,ACK
5.594938800000000,288,208,103,Write,ACK
5.595034000000000,288,208,89,Write,ACK
5.595129200000000,288,208,198,Write,ACK
5.595224400000000,288,208,25,Write,ACK
5.595319500000000,288,208,206,Write,ACK
5.595414700000000,288,208,130,Write,ACK
5.595661300000000,289,208,109,Write,ACK
5.595756500000000,289,208,3,Write,ACK
5.595851700000000,289,208,64,Write,ACK
5.596093200000000,290,208,111,Write,ACK
5.596318400000000,291,209,12,Read,ACK
5.596414600000000,291,209,10,Read,ACK
5.596510700000000,291,209,78,Read,ACK
5.596606900000000,291,209,104,Read,ACK
5.596703000000000,291,209,205,Read,ACK
5.596799200000000,291,209,207,Read,ACK
5.596895400000000,291,209,119,Read,ACK
5.596991600000000,291,209,9,Read,ACK
5.597087800000000,291,209,80,Read,ACK
5.597183900000000,291,209,22,Read,ACK
5.597280100000000,291,209,103,Read,ACK
5.597376300000000,291,209,89,Read,ACK
5.597472500000000,291,209,198,Read,ACK
5.597568700000000,291,209,25,Read,ACK
5.597664800000000,291,209,206,Read,ACK
5.597760900000000,291,209,130,Read,NAK
5.598159000000000,292,208,109,Write,ACK
5.598254200000000,292,208,3,Write,ACK
5.598349300000000,292,208,80,Write,ACK
5.598660900000000,293,208,111,Write,ACK
5.598756100000000,293,208,0,Write,ACK
5.598851300000000,293,208,0,Write,ACK
5.598946500000000,293,208,0,Write,ACK
5.599041600000000,293,208,0,Write,ACK
5.599136800000000,293,208,0,Write,ACK
5.599231900000000,293,208,0,Write,ACK
5.599327100000000,293,208,0,Write,ACK
5.599422300000000,293,208,0,Write,ACK
5.599517400000000,293,208,0,Write,ACK
5.599612500000000,293,208,0,Write,ACK
5.599707700000000,293,208,0,Write,ACK
5.599802900000000,293,208,0,Write,ACK
5.599898100000000,293,208,0,Write,ACK
5.599993200000000,293,208,0,Write,ACK
5.600088400000000,293,208,0,Write,ACK
5.600183600000000,293,208,0,Write,ACK
5.600430200000000,294,208,109,Write,ACK
5.600526800000000,294,208,3,Write,ACK
5.600622000000000,294,208,80,Write,ACK
5.600863500000000,295,208,111,Write,ACK
5.601088800000000,296,209,0,Read,ACK
5.601185000000000,296,209,0,Read,ACK
5.601281100000000,296,209,0,Read,ACK
5.601377300000000,296,209,0,Read,ACK
5.601473500000000,296,209,0,Read,ACK
5.601569700000000,296,209,0,Read,ACK
5.601665900000000,296,209,0,Read,ACK
5.601762000000000,296,209,0,Read,ACK
5.601858200000000,296,209,0,Read,ACK
5.601954400000000,296,209,0,Read,ACK
5.602050600000000,296,209,0,Read,ACK
5.602146700000000,296,209,0,Read,ACK
5.602242900000000,296,209,0,Read,ACK
5.602339100000000,296,209,0,Read,ACK
5.602435300000000,296,209,0,Read,ACK
5.602531400000000,296,209,0,Read,NAK
5.602929500000000,297,208,109,Write,ACK
5.603024700000000,297,208,3,Write,ACK
5.603119800000000,297,208,96,Write,ACK
5.603426300000000,298,208,111,Write,ACK
5.603521500000000,298,208,0,Write,ACK
5.603616600000000,298,208,0,Write,ACK
5.603711700000000,298,208,0,Write,ACK
5.603806900000000,298,208,0,Write,ACK
5.603902100000000,298,208,0,Write,ACK
5.603997300000000,298,208,0,Write,ACK
5.604092400000000,298,208,0,Write,ACK
5.604187600000000,298,208,0,Write,ACK
5.604282800000000,298,208,23,Write,ACK
5.604378000000000,298,208,215,Write,ACK
5.604473200000000,298,208,132,Write,ACK
5.604568300000000,298,208,0,Write,ACK
5.604663500000000,298,208,3,Write,ACK
5.604758700000000,298,208,0,Write,ACK
5.604853900000000,298,208,0,Write,ACK
5.604949100000000,298,208,0,Write,ACK
5.605195700000000,299,208,109,Write,ACK
5.605290800000000,299,208,3,Write,ACK
5.605386000000000,299,208,96,Write,ACK
5.605627500000000,300,208,111,Write,ACK
5.605852800000000,301,209,0,Read,ACK
5.605949000000000,301,209,0,Read,ACK
5.606045200000000,301,209,0,Read,ACK
5.606141300000000,301,209,0,Read,ACK
5.606237400000000,301,209,0,Read,ACK
5.606333600000000,301,209,0,Read,ACK
5.606429800000000,301,209,0,Read,ACK
5.606526000000000,301,209,0,Read,ACK
5.606622200000000,301,209,23,Read,ACK
5.606718300000000,301,209,215,Read,ACK
5.606814400000000,301,209,132,Read,ACK
5.606910600000000,301,209,0,Read,ACK
5.607006800000000,301,209,3,Read,ACK
5.607102900000000,301,209,0,Read,ACK
5.607199100000000,301,209,0,Read,ACK
5.607295200000000,301,209,0,Read,NAK
5.607695100000000,302,208,109,Write,ACK
5.607790200000000,302,208,3,Write,ACK
5.607885400000000,302,208,112,Write,ACK
5.608191900000000,303,208,111,Write,ACK
5.608287100000000,303,208,0,Write,ACK
5.608382300000000,303,208,0,Write,ACK
5.608477400000000,303,208,0,Write,ACK
5.608572600000000,303,208,0,Write,ACK
5.608667800000000,303,208,0,Write,ACK
5.608763000000000,303,208,0,Write,ACK
5.608858200000000,303,208,0,Write,ACK
5.608953300000000,303,208,0,Write,ACK
5.609048500000000,303,208,199,Write,ACK
5.609143700000000,303,208,147,Write,ACK
5.609238900000000,303,208,143,Write,ACK
5.609334000000000,303,208,157,Write,ACK
5.609429200000000,303,208,30,Write,ACK
5.609524400000000,303,208,27,Write,ACK
5.609619600000000,303,208,28,Write,ACK
5.609714800000000,303,208,25,Write,ACK
5.609961400000000,304,208,109,Write,ACK
5.610056500000000,304,208,3,Write,ACK
5.610151700000000,304,208,112,Write,ACK
5.610393200000000,305,208,111,Write,ACK
5.610618500000000,306,209,0,Read,ACK
5.610714700000000,306,209,0,Read,ACK
5.610810800000000,306,209,0,Read,ACK
5.610906900000000,306,209,0,Read,ACK
5.611003100000000,306,209,0,Read,ACK
5.611099300000000,306,209,0,Read,ACK
5.611195400000000,306,209,0,Read,ACK
5.611291600000000,306,209,0,Read,ACK
5.611387800000000,306,209,199,Read,ACK
5.611484000000000,306,209,147,Read,ACK
5.611580200000000,306,209,143,Read,ACK
5.611676300000000,306,209,157,Read,ACK
5.611772500000000,306,209,30,Read,ACK
5.611868700000000,306,209,27,Read,ACK
5.611964900000000,306,209,28,Read,ACK
5.612061000000000,306,209,25,Read,NAK
5.612459000000000,307,208,109,Write,ACK
5.612554200000000,307,208,3,Write,ACK
5.612649400000000,307,208,128,Write,ACK
5.612961000000000,308,208,111,Write,ACK
5.613056200000000,308,208,0,Write,ACK
5.613151300000000,308,208,0,Write,ACK
5.613246500000000,308,208,0,Write,ACK
5.613341600000000,308,208,0,Write,ACK
5.613436800000000,308,208,0,Write,ACK
5.613532000000000,308,208,0,Write,ACK
5.613627200000000,308,208,0,Write,ACK
5.613722300000000,308,208,0,Write,ACK
5.613817500000000,308,208,0,Write,ACK
5.613912600000000,308,208,0,Write,ACK
5.614007800000000,308,208,0,Write,ACK
5.614102900000000,308,208,0,Write,ACK
5.614198100000000,308,208,0,Write,ACK
5.614293300000000,308,208,0,Write,ACK
5.614388500000000,308,208,0,Write,ACK
5.614483700000000,308,208,0,Write,ACK
5.614730300000000,309,208,109,Write,ACK
5.614825400000000,309,208,3,Write,ACK
5.614920600000000,309,208,128,Write,ACK
5.615162100000000,310,208,111,Write,ACK
5.615387400000000,311,209,0,Read,ACK
5.615483600000000,311,209,0,Read,ACK
5.615579700000000,311,209,0,Read,ACK
5.615675900000000,311,209,0,Read,ACK
5.615772100000000,311,209,0,Read,ACK
5.615868300000000,311,209,0,Read,ACK
5.615964400000000,311,209,0,Read,ACK
5.616060500000000,311,209,0,Read,ACK
5.616156700000000,311,209,0,Read,ACK
5.616252900000000,311,209,0,Read,ACK
5.616349100000000,311,209,0,Read,ACK
5.616445200000000,311,209,0,Read,ACK
5.616541400000000,311,209,0,Read,ACK
5.616637600000000,311,209,0,Read,ACK
5.616733800000000,311,209,0,Read,ACK
5.616829900000000,311,209,0,Read,NAK
5.617237900000000,312,208,109,Write,ACK
5.617333100000000,312,208,3,Write,ACK
5.617428300000000,312,208,144,Write,ACK
5.617734800000000,313,208,111,Write,ACK
5.617830000000000,313,208,0,Write,ACK
5.617925200000000,313,208,0,Write,ACK
5.618020300000000,313,208,0,Write,ACK
5.618120100000000,313,208,0,Write,ACK
5.618215300000000,313,208,0,Write,ACK
5.618310400000000,313,208,0,Write,ACK
5.618405600000000,313,208,0,Write,ACK
5.618500800000000,313,208,0,Write,ACK
5.618596000000000,313,208,2,Write,ACK
5.618691200000000,313,208,3,Write,ACK
5.618786300000000,313,208,24,Write,ACK
5.618881500000000,313,208,133,Write,ACK
5.618976700000000,313,208,0,Write,ACK
5.619071900000000,313,208,0,Write,ACK
5.619167100000000,313,208,64,Write,ACK
5.619262200000000,313,208,0,Write,ACK
5.619508800000000,314,208,109,Write,ACK
5.619604000000000,314,208,3,Write,ACK
5.619699200000000,314,208,144,Write,ACK
5.619940700000000,315,208,111,Write,ACK
5.620165800000000,316,209,0,Read,ACK
5.620262000000000,316,209,0,Read,ACK
5.620358200000000,316,209,0,Read,ACK
5.620454400000000,316,209,0,Read,ACK
5.620550600000000,316,209,0,Read,ACK
5.620646700000000,316,209,0,Read,ACK
5.620742900000000,316,209,0,Read,ACK
5.620839100000000,316,209,0,Read,ACK
5.620935300000000,316,209,2,Read,ACK
5.621031500000000,316,209,3,Read,ACK
5.621127600000000,316,209,24,Read,ACK
5.621223800000000,316,209,133,Read,ACK
5.621320000000000,316,209,0,Read,ACK
5.621416200000000,316,209,0,Read,ACK
5.621512300000000,316,209,64,Read,ACK
5.621608500000000,316,209,0,Read,NAK
5.622006500000000,317,208,109,Write,ACK
5.622101600000000,317,208,3,Write,ACK
5.622196700000000,317,208,160,Write,ACK
5.622503300000000,318,208,111,Write,ACK
5.622598400000000,318,208,0,Write,ACK
5.622693600000000,318,208,0,Write,ACK
5.622788800000000,318,208,0,Write,ACK
5.622884000000000,318,208,3,Write,ACK
5.622979200000000,318,208,0,Write,ACK
5.623074300000000,318,208,0,Write,ACK
5.623169500000000,318,208,0,Write,ACK
5.623264700000000,318,208,3,Write,ACK
5.623359900000000,318,208,0,Write,ACK
5.623455100000000,318,208,0,Write,ACK
5.623550200000000,318,208,0,Write,ACK
5.623645400000000,318,208,0,Write,ACK
5.623740600000000,318,208,0,Write,ACK
5.623835800000000,318,208,0,Write,ACK
5.623930900000000,318,208,0,Write,ACK
5.624026100000000,318,208,0,Write,ACK
5.624272700000000,319,208,109,Write,ACK
5.624367900000000,319,208,3,Write,ACK
5.624463100000000,319,208,160,Write,ACK
5.624704600000000,320,208,111,Write,ACK
5.624929900000000,321,209,0,Read,ACK
5.625026000000000,321,209,0,Read,ACK
5.625122200000000,321,209,0,Read,ACK
5.625218400000000,321,209,3,Read,ACK
5.625314600000000,321,209,0,Read,ACK
5.625410800000000,321,209,0,Read,ACK
5.625506900000000,321,209,0,Read,ACK
5.625603100000000,321,209,3,Read,ACK
5.625699300000000,321,209,0,Read,ACK
5.625795500000000,321,209,0,Read,ACK
5.625891600000000,321,209,0,Read,ACK
5.625987800000000,321,209,0,Read,ACK
5.626084000000000,321,209,0,Read,ACK
5.626180200000000,321,209,0,Read,ACK
5.626276400000000,321,209,0,Read,ACK
5.626372500000000,321,209,0,Read,NAK
5.626770600000000,322,208,109,Write,ACK
5.626865700000000,322,208,3,Write,ACK
5.626960900000000,322,208,176,Write,ACK
5.627277500000000,323,208,111,Write,ACK
5.627372600000000,323,208,64,Write,ACK
5.627467800000000,323,208,0,Write,ACK
5.627563000000000,323,208,0,Write,ACK
5.627658200000000,323,208,0,Write,ACK
5.627753400000000,323,208,0,Write,ACK
5.627848500000000,323,208,0,Write,ACK
5.627943700000000,323,208,0,Write,ACK
5.628038900000000,323,208,0,Write,ACK
5.628134000000000,323,208,0,Write,ACK
5.628229100000000,323,208,0,Write,ACK
5.628324200000000,323,208,0,Write,ACK
5.628419400000000,323,208,0,Write,ACK
5.628514600000000,323,208,0,Write,ACK
5.628609800000000,323,208,0,Write,ACK
5.628705000000000,323,208,0,Write,ACK
5.628800100000000,323,208,0,Write,ACK
5.629046700000000,324,208,109,Write,ACK
5.629141900000000,324,208,3,Write,ACK
5.629237100000000,324,208,176,Write,ACK
5.629478600000000,325,208,111,Write,ACK
5.629703900000000,326,209,64,Read,ACK
5.629800100000000,326,209,0,Read,ACK
5.629896300000000,326,209,0,Read,ACK
5.629992500000000,326,209,0,Read,ACK
5.630088700000000,326,209,0,Read,ACK
5.630184800000000,326,209,0,Read,ACK
5.630280900000000,326,209,0,Read,ACK
5.630377000000000,326,209,0,Read,ACK
5.630473200000000,326,209,0,Read,ACK
5.630569400000000,326,209,0,Read,ACK
5.630665500000000,326,209,0,Read,ACK
5.630761700000000,326,209,0,Read,ACK
5.630857900000000,326,209,0,Read,ACK
5.630954100000000,326,209,0,Read,ACK
5.631050300000000,326,209,0,Read,ACK
5.631146400000000,326,209,0,Read,NAK
5.631547100000000,327,208,109,Write,ACK
5.631642300000000,327,208,3,Write,ACK
5.631737400000000,327,208,192,Write,ACK
5.632044000000000,328,208,111,Write,ACK
5.632139200000000,328,208,0,Write,ACK
5.632234300000000,328,208,0,Write,ACK
5.632329500000000,328,208,0,Write,ACK
5.632424700000000,328,208,0,Write,ACK
5.632519900000000,328,208,0,Write,ACK
5.632615100000000,328,208,0,Write,ACK
5.632710200000000,328,208,0,Write,ACK
5.632805400000000,328,208,0,Write,ACK
5.632900600000000,328,208,0,Write,ACK
5.632995800000000,328,208,0,Write,ACK
5.633090900000000,328,208,0,Write,ACK
5.633186100000000,328,208,0,Write,ACK
5.633281300000000,328,208,0,Write,ACK
5.633376500000000,328,208,0,Write,ACK
5.633471700000000,328,208,0,Write,ACK
5.633566800000000,328,208,0,Write,ACK
5.633813400000000,329,208,109,Write,ACK
5.633908600000000,329,208,3,Write,ACK
5.634003800000000,329,208,192,Write,ACK
5.634250300000000,330,208,111,Write,ACK
5.634475500000000,331,209,0,Read,ACK
5.634571600000000,331,209,0,Read,ACK
5.634667800000000,331,209,0,Read,ACK
5.634764000000000,331,209,0,Read,ACK
5.634860200000000,331,209,0,Read,ACK
5.634956300000000,331,209,0,Read,ACK
5.635052500000000,331,209,0,Read,ACK
5.635148700000000,331,209,0,Read,ACK
5.635244900000000,331,209,0,Read,ACK
5.635341100000000,331,209,0,Read,ACK
5.635437200000000,331,209,0,Read,ACK
5.635533400000000,331,209,0,Read,ACK
5.635629600000000,331,209,0,Read,ACK
5.635725800000000,331,209,0,Read,ACK
5.635822000000000,331,209,0,Read,ACK
5.635918100000000,331,209,0,Read,NAK
5.636326100000000,332,208,109,Write,ACK
5.636421200000000,332,208,3,Write,ACK
5.636516300000000,332,208,208,Write,ACK
5.636822900000000,333,208,111,Write,ACK
5.636918000000000,333,208,0,Write,ACK
5.637013200000000,333,208,0,Write,ACK
5.637108400000000,333,208,0,Write,ACK
5.637203600000000,333,208,0,Write,ACK
5.637298800000000,333,208,0,Write,ACK
5.637393900000000,333,208,0,Write,ACK
5.637489100000000,333,208,0,Write,ACK
5.637584300000000,333,208,0,Write,ACK
5.637679500000000,333,208,0,Write,ACK
5.637774700000000,333,208,0,Write,ACK
5.637869800000000,333,208,0,Write,ACK
5.637965000000000,333,208,0,Write,ACK
5.638060200000000,333,208,0,Write,ACK
5.638155400000000,333,208,0,Write,ACK
5.638250600000000,333,208,0,Write,ACK
5.638345700000000,333,208,0,Write,ACK
5.638592300000000,334,208,109,Write,ACK
5.638687500000000,334,208,3,Write,ACK
5.638782700000000,334,208,208,Write,ACK
5.639024200000000,335,208,111,Write,ACK
5.639252900000000,336,209,0,Read,ACK
5.639349100000000,336,209,0,Read,ACK
5.639445200000000,336,209,0,Read,ACK
5.639541300000000,336,209,0,Read,ACK
5.639637500000000,336,209,0,Read,ACK
5.639733700000000,336,209,0,Read,ACK
5.639829900000000,336,209,0,Read,ACK
5.639926000000000,336,209,0,Read,ACK
5.640022200000000,336,209,0,Read,ACK
5.640124000000000,336,209,0,Read,ACK
5.640220200000000,336,209,0,Read,ACK
5.640316400000000,336,209,0,Read,ACK
5.640412600000000,336,209,0,Read,ACK
5.640508700000000,336,209,0,Read,ACK
5.640604900000000,336,209,0,Read,ACK
5.640701000000000,336,209,0,Read,NAK
5.641099100000000,337,208,109,Write,ACK
5.641194200000000,337,208,3,Write,ACK
5.641289400000000,337,208,224,Write,ACK
5.641601000000000,338,208,111,Write,ACK
5.641696200000000,338,208,0,Write,ACK
5.641791400000000,338,208,0,Write,ACK
5.641886500000000,338,208,0,Write,ACK
5.641981700000000,338,208,0,Write,ACK
5.642076900000000,338,208,103,Write,ACK
5.642172000000000,338,208,125,Write,ACK
5.642267200000000,338,208,223,Write,ACK
5.642362400000000,338,208,126,Write,ACK
5.642457600000000,338,208,114,Write,ACK
5.642552700000000,338,208,144,Write,ACK
5.642647800000000,338,208,46,Write,ACK
5.642743000000000,338,208,85,Write,ACK
5.642838100000000,338,208,76,Write,ACK
5.642933300000000,338,208,246,Write,ACK
5.643028500000000,338,208,230,Write,ACK
5.643123700000000,338,208,136,Write,ACK
5.643370300000000,339,208,109,Write,ACK
5.643465500000000,339,208,3,Write,ACK
5.643560600000000,339,208,224,Write,ACK
5.643802200000000,340,208,111,Write,ACK
5.644027500000000,341,209,0,Read,ACK
5.644124500000000,341,209,0,Read,ACK
5.644220700000000,341,209,0,Read,ACK
5.644316900000000,341,209,0,Read,ACK
5.644413100000000,341,209,103,Read,ACK
5.644509300000000,341,209,125,Read,ACK
5.644605400000000,341,209,223,Read,ACK
5.644701500000000,341,209,126,Read,ACK
5.644797700000000,341,209,114,Read,ACK
5.644893800000000,341,209,144,Read,ACK
5.644990000000000,341,209,46,Read,ACK
5.645086200000000,341,209,85,Read,ACK
5.645182400000000,341,209,76,Read,ACK
5.645278600000000,341,209,246,Read,ACK
5.645374700000000,341,209,230,Read,ACK
5.645470900000000,341,209,136,Read,NAK
5.645873900000000,342,208,109,Write,ACK
5.645969100000000,342,208,3,Write,ACK
5.646064300000000,342,208,240,Write,ACK
5.646370800000000,343,208,111,Write,ACK
5.646466000000000,343,208,0,Write,ACK
5.646561100000000,343,208,0,Write,ACK
5.646656200000000,343,208,0,Write,ACK
5.646751400000000,343,208,0,Write,ACK
5.646846500000000,343,208,0,Write,ACK
5.646941700000000,343,208,0,Write,ACK
5.647036900000000,343,208,0,Write,ACK
5.647132100000000,343,208,0,Write,ACK
5.647227300000000,343,208,0,Write,ACK
5.647322400000000,343,208,0,Write,ACK
5.647417600000000,343,208,0,Write,ACK
5.647512800000000,343,208,0,Write,ACK
5.647608000000000,343,208,0,Write,ACK
5.647703200000000,343,208,0,Write,ACK
5.647798300000000,343,208,0,Write,ACK
5.647893500000000,343,208,0,Write,ACK
5.648140100000000,344,208,109,Write,ACK
5.648235300000000,344,208,3,Write,ACK
5.648330500000000,344,208,240,Write,ACK
5.648572000000000,345,208,111,Write,ACK
5.648797200000000,346,209,0,Read,ACK
5.648893400000000,346,209,0,Read,ACK
5.648989600000000,346,209,0,Read,ACK
5.649085800000000,346,209,0,Read,ACK
5.649181900000000,346,209,0,Read,ACK
5.649278100000000,346,209,0,Read,ACK
5.649374300000000,346,209,0,Read,ACK
5.649470400000000,346,209,0,Read,ACK
5.649566600000000,346,209,0,Read,ACK
5.649662800000000,346,209,0,Read,ACK
5.649758900000000,346,209,0,Read,ACK
5.649855000000000,346,209,0,Read,ACK
5.649951200000000,346,209,0,Read,ACK
5.650047400000000,346,209,0,Read,ACK
5.650143600000000,346,209,0,Read,ACK
5.650239700000000,346,209,0,Read,NAK
5.650637700000000,347,208,109,Write,ACK
5.650732800000000,347,208,4,Write,ACK
5.650827900000000,347,208,0,Write,ACK
5.651134500000000,348,208,111,Write,ACK
5.651229700000000,348,208,216,Write,ACK
5.651324800000000,348,208,220,Write,ACK
5.651420000000000,348,208,180,Write,ACK
5.651515200000000,348,208,184,Write,ACK
5.651610400000000,348,208,176,Write,ACK
5.651705600000000,348,208,216,Write,ACK
5.651800700000000,348,208,185,Write,ACK
5.651895900000000,348,208,171,Write,ACK
5.651991100000000,348,208,243,Write,ACK
5.652086300000000,348,208,248,Write,ACK
5.652181400000000,348,208,250,Write,ACK
5.652276600000000,348,208,179,Write,ACK
5.652371800000000,348,208,183,Write,ACK
5.652467000000000,348,208,187,Write,ACK
5.652562200000000,348,208,142,Write,ACK
5.652657300000000,348,208,158,Write,ACK
5.652903900000000,349,208,109,Write,ACK
5.652999100000000,349,208,4,Write,ACK
5.653094300000000,349,208,0,Write,ACK
5.653335800000000,350,208,111,Write,ACK
5.653561100000000,351,209,216,Read,ACK
5.653657300000000,351,209,220,Read,ACK
5.653753400000000,351,209,180,Read,ACK
5.653849500000000,351,209,184,Read,ACK
5.653945700000000,351,209,176,Read,ACK
5.654041800000000,351,209,216,Read,ACK
5.654138000000000,351,209,185,Read,ACK
5.654234200000000,351,209,171,Read,ACK
5.654330400000000,351,209,243,Read,ACK
5.654426600000000,351,209,248,Read,ACK
5.654522700000000,351,209,250,Read,ACK
5.654618900000000,351,209,179,Read,ACK
5.654715100000000,351,209,183,Read,ACK
5.654811300000000,351,209,187,Read,ACK
5.654907500000000,351,209,142,Read,ACK
5.655003600000000,351,209,158,Read,NAK
5.655411600000000,352,208,109,Write,ACK
5.655506800000000,352,208,4,Write,ACK
5.655602000000000,352,208,16,Write,ACK
5.655914300000000,353,208,111,Write,ACK
5.656009500000000,353,208,174,Write,ACK
5.656104700000000,353,208,241,Write,ACK
5.656199800000000,353,208,50,Write,ACK
5.656295000000000,353,208,245,Write,ACK
5.656390200000000,353,208,27,Write,ACK
5.656485400000000,353,208,241,Write,ACK
5.656580600000000,353,208,180,Write,ACK
5.656675700000000,353,208,184,Write,ACK
5.656770900000000,353,208,176,Write,ACK
5.656866100000000,353,208,128,Write,ACK
5.656961300000000,353,208,151,Write,ACK
5.657056500000000,353,208,241,Write,ACK
5.657151600000000,353,208,169,Write,ACK
5.657246800000000,353,208,223,Write,ACK
5.657342000000000,353,208,223,Write,ACK
5.657437200000000,353,208,223,Write,ACK
5.657683800000000,354,208,109,Write,ACK
5.657779000000000,354,208,4,Write,ACK
5.657874100000000,354,208,16,Write,ACK
5.658115700000000,355,208,111,Write,ACK
5.658340900000000,356,209,174,Read,ACK
5.658437100000000,356,209,241,Read,ACK
5.658533300000000,356,209,50,Read,ACK
5.658629400000000,356,209,245,Read,ACK
5.658725600000000,356,209,27,Read,ACK
5.658821800000000,356,209,241,Read,ACK
5.658917900000000,356,209,180,Read,ACK
5.659014000000000,356,209,184,Read,ACK
5.659110200000000,356,209,176,Read,ACK
5.659206400000000,356,209,128,Read,ACK
5.659302600000000,356,209,151,Read,ACK
5.659398700000000,356,209,241,Read,ACK
5.659494900000000,356,209,169,Read,ACK
5.659591100000000,356,209,223,Read,ACK
5.659687300000000,356,209,223,Read,ACK
5.659783400000000,356,209,223,Read,NAK
5.660186400000000,357,208,109,Write,ACK
5.660281600000000,357,208,4,Write,ACK
5.660376800000000,357,208,32,Write,ACK
5.660683300000000,358,208,111,Write,ACK
5.660778500000000,358,208,170,Write,ACK
5.660873700000000,358,208,223,Write,ACK
5.660968800000000,358,208,223,Write,ACK
5.661063900000000,358,208,223,Write,ACK
5.661159100000000,358,208,242,Write,ACK
5.661254300000000,358,208,170,Write,ACK
5.661349400000000,358,208,197,Write,ACK
5.661444600000000,358,208,205,Write,ACK
5.661539800000000,358,208,199,Write,ACK
5.661635000000000,358,208,169,Write,ACK
5.661730200000000,358,208,12,Write,ACK
5.661825300000000,358,208,201,Write,ACK
5.661920500000000,358,208,44,Write,ACK
5.662015700000000,358,208,151,Write,ACK
5.662110900000000,358,208,241,Write,ACK
5.662206100000000,358,208,169,Write,ACK
5.662452700000000,359,208,109,Write,ACK
5.662547800000000,359,208,4,Write,ACK
5.662643000000000,359,208,32,Write,ACK
5.662884500000000,360,208,111,Write,ACK
5.663115300000000,361,209,170,Read,ACK
5.663211500000000,361,209,223,Read,ACK
5.663307700000000,361,209,223,Read,ACK
5.663403800000000,361,209,223,Read,ACK
5.663500000000000,361,209,242,Read,ACK
5.663596200000000,361,209,170,Read,ACK
5.663692400000000,361,209,197,Read,ACK
5.663788500000000,361,209,205,Read,ACK
5.663884700000000,361,209,199,Read,ACK
5.663980900000000,361,209,169,Read,ACK
5.664077100000000,361,209,12,Read,ACK
5.664173300000000,361,209,201,Read,ACK
5.664269400000000,361,209,44,Read,ACK
5.664365600000000,361,209,151,Read,ACK
5.664461800000000,361,209,241,Read,ACK
5.664557900000000,361,209,169,Read,NAK
5.664955900000000,362,208,109,Write,ACK
5.665051100000000,362,208,4,Write,ACK
5.665146200000000,362,208,48,Write,ACK
5.665452700000000,363,208,111,Write,ACK
5.665547900000000,363,208,137,Write,ACK
5.665643100000000,363,208,38,Write,ACK
5.665738200000000,363,208,70,Write,ACK
5.665833400000000,363,208,102,Write,ACK
5.665928600000000,363,208,178,Write,ACK
5.666023800000000,363,208,137,Write,ACK
5.666119000000000,363,208,153,Write,ACK
5.666214100000000,363,208,169,Write,ACK
5.666309300000000,363,208,45,Write,ACK
5.666404500000000,363,208,85,Write,ACK
5.666499700000000,363,208,125,Write,ACK
5.666594900000000,363,208,176,Write,ACK
5.666690000000000,363,208,176,Write,ACK
5.666785200000000,363,208,138,Write,ACK
5.666880400000000,363,208,168,Write,ACK
5.666975600000000,363,208,150,Write,ACK
5.667237200000000,364,208,109,Write,ACK
5.667332400000000,364,208,4,Write,ACK
5.667427500000000,364,208,48,Write,ACK
5.667669000000000,365,208,111,Write,ACK
5.667894300000000,366,209,137,Read,ACK
5.667990500000000,366,209,38,Read,ACK
5.668086700000000,366,209,70,Read,ACK
5.668182800000000,366,209,102,Read,ACK
5.668279000000000,366,209,178,Read,ACK
5.668375200000000,366,209,137,Read,ACK
5.668471400000000,366,209,153,Read,ACK
5.668567600000000,366,209,169,Read,ACK
5.668663700000000,366,209,45,Read,ACK
5.668759900000000,366,209,85,Read,ACK
5.668856100000000,366,209,125,Read,ACK
5.668952300000000,366,209,176,Read,ACK
5.669048500000000,366,209,176,Read,ACK
5.669144600000000,366,209,138,Read,ACK
5.669240800000000,366,209,168,Read,ACK
5.669336900000000,366,209,150,Read,NAK
5.669735000000000,367,208,109,Write,ACK
5.669830200000000,367,208,4,Write,ACK
5.669925400000000,367,208,64,Write,ACK
5.670236900000000,368,208,111,Write,ACK
5.670332100000000,368,208,54,Write,ACK
5.670427300000000,368,208,86,Write,ACK
5.670522500000000,368,208,118,Write,ACK
5.670617600000000,368,208,241,Write,ACK
5.670712800000000,368,208,186,Write,ACK
5.670808000000000,368,208,163,Write,ACK
5.670903200000000,368,208,180,Write,ACK
5.670998300000000,368,208,178,Write,ACK
5.671093500000000,368,208,128,Write,ACK
5.671188700000000,368,208,192,Write,ACK
5.671283900000000,368,208,184,Write,ACK
5.671379100000000,368,208,168,Write,ACK
5.671474200000000,368,208,151,Write,ACK
5.671569400000000,368,208,17,Write,ACK
5.671664600000000,368,208,178,Write,ACK
5.671759800000000,368,208,131,Write,ACK
5.672006400000000,369,208,109,Write,ACK
5.672101600000000,369,208,4,Write,ACK
5.672200500000000,369,208,64,Write,ACK
5.672442000000000,370,208,111,Write,ACK
5.672667300000000,371,209,54,Read,ACK
5.672763400000000,371,209,86,Read,ACK
5.672859600000000,371,209,118,Read,ACK
5.672955800000000,371,209,241,Read,ACK
5.673052000000000,371,209,186,Read,ACK
5.673148200000000,371,209,163,Read,ACK
5.673244300000000,371,209,180,Read,ACK
5.673340500000000,371,209,178,Read,ACK
5.673436700000000,371,209,128,Read,ACK
5.673532900000000,371,209,192,Read,ACK
5.673629100000000,371,209,184,Read,ACK
5.673725200000000,371,209,168,Read,ACK
5.673821400000000,371,209,151,Read,ACK
5.673917600000000,371,209,17,Read,ACK
5.674013800000000,371,209,178,Read,ACK
5.674109900000000,371,209,131,Read,NAK
5.674513000000000,372,208,109,Write,ACK
5.674608200000000,372,208,4,Write,ACK
5.674703300000000,372,208,80,Write,ACK
5.675009900000000,373,208,111,Write,ACK
5.675105000000000,373,208,152,Write,ACK
5.675200200000000,373,208,186,Write,ACK
5.675295300000000,373,208,163,Write,ACK
5.675390400000000,373,208,240,Write,ACK
5.675485600000000,373,208,36,Write,ACK
5.675580800000000,373,208,8,Write,ACK
5.675675900000000,373,208,68,Write,ACK
5.675771100000000,373,208,16,Write,ACK
5.675866300000000,373,208,100,Write,ACK
5.675961500000000,373,208,24,Write,ACK
5.676056600000000,373,208,178,Write,ACK
5.676151800000000,373,208,185,Write,ACK
5.676247000000000,373,208,180,Write,ACK
5.676342200000000,373,208,152,Write,ACK
5.676437400000000,373,208,131,Write,ACK
5.676532500000000,373,208,241,Write,ACK
5.676779100000000,374,208,109,Write,ACK
5.676874300000000,374,208,4,Write,ACK
5.676969500000000,374,208,80,Write,ACK
5.677211000000000,375,208,111,Write,ACK
5.677441300000000,376,209,152,Read,ACK
5.677537500000000,376,209,186,Read,ACK
5.677633700000000,376,209,163,Read,ACK
5.677729900000000,376,209,240,Read,ACK
5.677826100000000,376,209,36,Read,ACK
5.677922200000000,376,209,8,Read,ACK
5.678018400000000,376,209,68,Read,ACK
5.678114600000000,376,209,16,Read,ACK
5.678210700000000,376,209,100,Read,ACK
5.678306900000000,376,209,24,Read,ACK
5.678403000000000,376,209,178,Read,ACK
5.678499100000000,376,209,185,Read,ACK
5.678595300000000,376,209,180,Read,ACK
5.678691500000000,376,209,152,Read,ACK
5.678787700000000,376,209,131,Read,ACK
5.678883800000000,376,209,241,Read,NAK
5.679291800000000,377,208,109,Write,ACK
5.679386900000000,377,208,4,Write,ACK
5.679482000000000,377,208,96,Write,ACK
5.679788600000000,378,208,111,Write,ACK
5.679883700000000,378,208,163,Write,ACK
5.679978900000000,378,208,41,Write,ACK
5.680074100000000,378,208,85,Write,ACK
5.680169300000000,378,208,125,Write,ACK
5.680264500000000,378,208,186,Write,ACK
5.680359600000000,378,208,181,Write,ACK
5.680454800000000,378,208,177,Write,ACK
5.680550000000000,378,208,163,Write,ACK
5.680645200000000,378,208,131,Write,ACK
5.680740400000000,378,208,147,Write,ACK
5.680835500000000,378,208,240,Write,ACK
5.680930700000000,378,208,0,Write,ACK
5.681025900000000,378,208,40,Write,ACK
5.681121100000000,378,208,80,Write,ACK
5.681216300000000,378,208,245,Write,ACK
5.681311400000000,378,208,178,Write,ACK
5.681568000000000,379,208,109,Write,ACK
5.681663200000000,379,208,4,Write,ACK
5.681758400000000,379,208,96,Write,ACK
5.681999900000000,380,208,111,Write,ACK
5.682225200000000,381,209,163,Read,ACK
5.682321300000000,381,209,41,Read,ACK
5.682417500000000,381,209,85,Read,ACK
5.682513600000000,381,209,125,Read,ACK
5.682609800000000,381,209,186,Read,ACK
5.682705900000000,381,209,181,Read,ACK
5.682802100000000,381,209,177,Read,ACK
5.682898300000000,381,209,163,Read,ACK
5.682994500000000,381,209,131,Read,ACK
5.683090700000000,381,209,147,Read,ACK
5.683186800000000,381,209,240,Read,ACK
5.683283000000000,381,209,0,Read,ACK
5.683379200000000,381,209,40,Read,ACK
5.683475400000000,381,209,80,Read,ACK
5.683571500000000,381,209,245,Read,ACK
5.683667700000000,381,209,178,Read,NAK
5.684065800000000,382,208,109,Write,ACK
5.684160900000000,382,208,4,Write,ACK
5.684256000000000,382,208,112,Write,ACK
5.684562500000000,383,208,111,Write,ACK
5.684657600000000,383,208,182,Write,ACK
5.684752800000000,383,208,170,Write,ACK
5.684848000000000,383,208,131,Write,ACK
5.684943200000000,383,208,147,Write,ACK
5.685038400000000,383,208,40,Write,ACK
5.685133500000000,383,208,84,Write,ACK
5.685228700000000,383,208,124,Write,ACK
5.685323900000000,383,208,241,Write,ACK
5.685419100000000,383,208,185,Write,ACK
5.685514200000000,383,208,163,Write,ACK
5.685609400000000,383,208,130,Write,ACK
5.685704600000000,383,208,147,Write,ACK
5.685799800000000,383,208,97,Write,ACK
5.685895000000000,383,208,186,Write,ACK
5.685990100000000,383,208,162,Write,ACK
5.686085300000000,383,208,218,Write,ACK
5.686331900000000,384,208,109,Write,ACK
5.686427100000000,384,208,4,Write,ACK
5.686522300000000,384,208,112,Write,ACK
5.686763800000000,385,208,111,Write,ACK
5.686989100000000,386,209,182,Read,ACK
5.687085300000000,386,209,170,Read,ACK
5.687181400000000,386,209,131,Read,ACK
5.687277600000000,386,209,147,Read,ACK
5.687373800000000,386,209,40,Read,ACK
5.687470000000000,386,209,84,Read,ACK
5.687566100000000,386,209,124,Read,ACK
5.687662200000000,386,209,241,Read,ACK
5.687758400000000,386,209,185,Read,ACK
5.687854500000000,386,209,163,Read,ACK
5.687950700000000,386,209,130,Read,ACK
5.688046900000000,386,209,147,Read,ACK
5.688143100000000,386,209,97,Read,ACK
5.688239300000000,386,209,186,Read,ACK
5.688335400000000,386,209,162,Read,ACK
5.688431600000000,386,209,218,Read,NAK
5.688834600000000,387,208,109,Write,ACK
5.688929800000000,387,208,4,Write,ACK
5.689025000000000,387,208,128,Write,ACK
5.689336500000000,388,208,111,Write,ACK
5.689431700000000,388,208,222,Write,ACK
5.689526800000000,388,208,223,Write,ACK
5.689621900000000,388,208,219,Write,ACK
5.689717100000000,388,208,129,Write,ACK
5.689812200000000,388,208,154,Write,ACK
5.689907400000000,388,208,185,Write,ACK
5.690002600000000,388,208,174,Write,ACK
5.690097800000000,388,208,245,Write,ACK
5.690193000000000,388,208,96,Write,ACK
5.690288100000000,388,208,104,Write,ACK
5.690383300000000,388,208,112,Write,ACK
5.690478500000000,388,208,241,Write,ACK
5.690573700000000,388,208,218,Write,ACK
5.690668900000000,388,208,186,Write,ACK
5.690764000000000,388,208,162,Write,ACK
5.690859200000000,388,208,223,Write,ACK
5.691105800000000,389,208,109,Write,ACK
5.691201000000000,389,208,4,Write,ACK
5.691296200000000,389,208,128,Write,ACK
5.691537700000000,390,208,111,Write,ACK
5.691767900000000,391,209,222,Read,ACK
5.691864100000000,391,209,223,Read,ACK
5.691960300000000,391,209,219,Read,ACK
5.692056500000000,391,209,129,Read,ACK
5.692152600000000,391,209,154,Read,ACK
5.692248800000000,391,209,185,Read,ACK
5.692345000000000,391,209,174,Read,ACK
5.692441100000000,391,209,245,Read,ACK
5.692537300000000,391,209,96,Read,ACK
5.692633500000000,391,209,104,Read,ACK
5.692729600000000,391,209,112,Read,ACK
5.692825700000000,391,209,241,Read,ACK
5.692921900000000,391,209,218,Read,ACK
5.693018100000000,391,209,186,Read,ACK
5.693114300000000,391,209,162,Read,ACK
5.693210400000000,391,209,223,Read,NAK
5.693608400000000,392,208,109,Write,ACK
5.693703500000000,392,208,4,Write,ACK
5.693798600000000,392,208,144,Write,ACK
5.694105200000000,393,208,111,Write,ACK
5.694200400000000,393,208,217,Write,ACK
5.694295500000000,393,208,186,Write,ACK
5.694390700000000,393,208,162,Write,ACK
5.694485900000000,393,208,250,Write,ACK
5.694581100000000,393,208,185,Write,ACK
5.694676300000000,393,208,163,Write,ACK
5.694771400000000,393,208,130,Write,ACK
5.694866600000000,393,208,146,Write,ACK
5.694961800000000,393,208,219,Write,ACK
5.695057000000000,393,208,49,Write,ACK
5.695152100000000,393,208,186,Write,ACK
5.695247300000000,393,208,162,Write,ACK
5.695342500000000,393,208,217,Write,ACK
5.695437700000000,393,208,186,Write,ACK
5.695532900000000,393,208,162,Write,ACK
5.695628000000000,393,208,248,Write,ACK
5.695884600000000,394,208,109,Write,ACK
5.695979800000000,394,208,4,Write,ACK
5.696075000000000,394,208,144,Write,ACK
5.696316500000000,395,208,111,Write,ACK
5.696541800000000,396,209,217,Read,ACK
5.696638000000000,396,209,186,Read,ACK
5.696734100000000,396,209,162,Read,ACK
5.696830200000000,396,209,250,Read,ACK
5.696926400000000,396,209,185,Read,ACK
5.697022500000000,396,209,163,Read,ACK
5.697118700000000,396,209,130,Read,ACK
5.697214900000000,396,209,146,Read,ACK
5.697311100000000,396,209,219,Read,ACK
5.697407300000000,396,209,49,Read,ACK
5.697503400000000,396,209,186,Read,ACK
5.697599600000000,396,209,162,Read,ACK
5.697695800000000,396,209,217,Read,ACK
5.697792000000000,396,209,186,Read,ACK
5.697888200000000,396,209,162,Read,ACK
5.697984300000000,396,209,248,Read,NAK
5.698392300000000,397,208,109,Write,ACK
5.698487500000000,397,208,4,Write,ACK
5.698582700000000,397,208,160,Write,ACK
5.698889100000000,398,208,111,Write,ACK
5.698984200000000,398,208,223,Write,ACK
5.699079400000000,398,208,133,Write,ACK
5.699174600000000,398,208,164,Write,ACK
5.699269800000000,398,208,208,Write,ACK
5.699365000000000,398,208,193,Write,ACK
5.699460100000000,398,208,187,Write,ACK
5.699555300000000,398,208,173,Write,ACK
5.699650500000000,398,208,131,Write,ACK
5.699745700000000,398,208,194,Write,ACK
5.699846000000000,398,208,197,Write,ACK
5.699941200000000,398,208,199,Write,ACK
5.700036400000000,398,208,184,Write,ACK
5.700131500000000,398,208,162,Write,ACK
5.700226700000000,398,208,223,Write,ACK
5.700321900000000,398,208,223,Write,ACK
5.700417100000000,398,208,223,Write,ACK
5.700663700000000,399,208,109,Write,ACK
5.700758800000000,399,208,4,Write,ACK
5.700854000000000,399,208,160,Write,ACK
5.701095600000000,400,208,111,Write,ACK
5.701320900000000,401,209,223,Read,ACK
5.701417000000000,401,209,133,Read,ACK
5.701513200000000,401,209,164,Read,ACK
5.701609400000000,401,209,208,Read,ACK
5.701705600000000,401,209,193,Read,ACK
5.701801700000000,401,209,187,Read,ACK
5.701897900000000,401,209,173,Read,ACK
5.701994100000000,401,209,131,Read,ACK
5.702090300000000,401,209,194,Read,ACK
5.702186500000000,401,209,197,Read,ACK
5.702282600000000,401,209,199,Read,ACK
5.702378800000000,401,209,184,Read,ACK
5.702475000000000,401,209,162,Read,ACK
5.702571200000000,401,209,223,Read,ACK
5.702667400000000,401,209,223,Read,ACK
5.702763500000000,401,209,223,Read,NAK
5.703166500000000,402,208,109,Write,ACK
5.703261700000000,402,208,4,Write,ACK
5.703356900000000,402,208,176,Write,ACK
5.703663400000000,403,208,111,Write,ACK
5.703758600000000,403,208,186,Write,ACK
5.703853800000000,403,208,160,Write,ACK
5.703948900000000,403,208,223,Write,ACK
5.704044000000000,403,208,223,Write,ACK
5.704139200000000,403,208,223,Write,ACK
5.704234300000000,403,208,216,Write,ACK
5.704329500000000,403,208,216,Write,ACK
5.704424700000000,403,208,241,Write,ACK
5.704519900000000,403,208,184,Write,ACK
5.704615100000000,403,208,170,Write,ACK
5.704710200000000,403,208,179,Write,ACK
5.704805400000000,403,208,141,Write,ACK
5.704900600000000,403,208,180,Write,ACK
5.704995800000000,403,208,152,Write,ACK
5.705091000000000,403,208,13,Write,ACK
5.705186100000000,403,208,53,Write,ACK
5.705432700000000,404,208,109,Write,ACK
5.705527900000000,404,208,4,Write,ACK
5.705623100000000,404,208,176,Write,ACK
5.705864600000000,405,208,111,Write,ACK
5.706094900000000,406,209,186,Read,ACK
5.706191000000000,406,209,160,Read,ACK
5.706287200000000,406,209,223,Read,ACK
5.706383400000000,406,209,223,Read,ACK
5.706479600000000,406,209,223,Read,ACK
5.706575800000000,406,209,216,Read,ACK
5.706671900000000,406,209,216,Read,ACK
5.706768100000000,406,209,241,Read,ACK
5.706864300000000,406,209,184,Read,ACK
5.706960500000000,406,209,170,Read,ACK
5.707056600000000,406,209,179,Read,ACK
5.707152700000000,406,209,141,Read,ACK
5.707248900000000,406,209,180,Read,ACK
5.707345100000000,406,209,152,Read,ACK
5.707441200000000,406,209,13,Read,ACK
5.707537400000000,406,209,53,Read,NAK
5.707935400000000,407,208,109,Write,ACK
5.708030600000000,407,208,4,Write,ACK
5.708132200000000,407,208,192,Write,ACK
5.708438700000000,408,208,111,Write,ACK
5.708533900000000,408,208,93,Write,ACK
5.708629100000000,408,208,178,Write,ACK
5.708724300000000,408,208,182,Write,ACK
5.708819400000000,408,208,186,Write,ACK
5.708914600000000,408,208,175,Write,ACK
5.709009800000000,408,208,140,Write,ACK
5.709105000000000,408,208,150,Write,ACK
5.709200200000000,408,208,25,Write,ACK
5.709295300000000,408,208,143,Write,ACK
5.709390500000000,408,208,159,Write,ACK
5.709485700000000,408,208,167,Write,ACK
5.709580900000000,408,208,14,Write,ACK
5.709676100000000,408,208,22,Write,ACK
5.709771200000000,408,208,30,Write,ACK
5.709866400000000,408,208,180,Write,ACK
5.709961600000000,408,208,154,Write,ACK
5.710218200000000,409,208,109,Write,ACK
5.710313400000000,409,208,4,Write,ACK
5.710408500000000,409,208,192,Write,ACK
5.710650000000000,410,208,111,Write,ACK
5.710875300000000,411,209,93,Read,ACK
5.710971500000000,411,209,178,Read,ACK
5.711067700000000,411,209,182,Read,ACK
5.711163900000000,411,209,186,Read,ACK
5.711260000000000,411,209,175,Read,ACK
5.711356200000000,411,209,140,Read,ACK
5.711452400000000,411,209,150,Read,ACK
5.711548600000000,411,209,25,Read,ACK
5.711644800000000,411,209,143,Read,ACK
5.711740900000000,411,209,159,Read,ACK
5.711837100000000,411,209,167,Read,ACK
5.711933300000000,411,209,14,Read,ACK
5.712029500000000,411,209,22,Read,ACK
5.712125600000000,411,209,30,Read,ACK
5.712221800000000,411,209,180,Read,ACK
5.712317900000000,411,209,154,Read,NAK
5.712716000000000,412,208,109,Write,ACK
5.712811200000000,412,208,4,Write,ACK
5.712906400000000,412,208,208,Write,ACK
5.713212900000000,413,208,111,Write,ACK
5.713308100000000,413,208,184,Write,ACK
5.713403300000000,413,208,170,Write,ACK
5.713498500000000,413,208,135,Write,ACK
5.713593600000000,413,208,44,Write,ACK
5.713688800000000,413,208,84,Write,ACK
5.713784000000000,413,208,124,Write,ACK
5.713879200000000,413,208,186,Write,ACK
5.713974400000000,413,208,164,Write,ACK
5.714069500000000,413,208,176,Write,ACK
5.714164700000000,413,208,138,Write,ACK
5.714259800000000,413,208,182,Write,ACK
5.714354900000000,413,208,145,Write,ACK
5.714450100000000,413,208,50,Write,ACK
5.714545200000000,413,208,86,Write,ACK
5.714640400000000,413,208,118,Write,ACK
5.714735600000000,413,208,178,Write,ACK
5.714982200000000,414,208,109,Write,ACK
5.715077400000000,414,208,4,Write,ACK
5.715172600000000,414,208,208,Write,ACK
5.715414100000000,415,208,111,Write,ACK
5.715639400000000,416,209,184,Read,ACK
5.715735600000000,416,209,170,Read,ACK
5.715831800000000,416,209,135,Read,ACK
5.715927900000000,416,209,44,Read,ACK
5.716024100000000,416,209,84,Read,ACK
5.716120300000000,416,209,124,Read,ACK
5.716216400000000,416,209,186,Read,ACK
5.716312500000000,416,209,164,Read,ACK
5.716408600000000,416,209,176,Read,ACK
5.716504800000000,416,209,138,Read,ACK
5.716601000000000,416,209,182,Read,ACK
5.716697200000000,416,209,145,Read,ACK
5.716793400000000,416,209,50,Read,ACK
5.716889500000000,416,209,86,Read,ACK
5.716985700000000,416,209,118,Read,ACK
5.717081800000000,416,209,178,Read,NAK
5.717484900000000,417,208,109,Write,ACK
5.717580100000000,417,208,4,Write,ACK
5.717675300000000,417,208,224,Write,ACK
5.717981800000000,418,208,111,Write,ACK
5.718077000000000,418,208,132,Write,ACK
5.718172100000000,418,208,148,Write,ACK
5.718267300000000,418,208,164,Write,ACK
5.718362400000000,418,208,200,Write,ACK
5.718457500000000,418,208,8,Write,ACK
5.718552700000000,418,208,205,Write,ACK
5.718647900000000,418,208,216,Write,ACK
5.718743100000000,418,208,184,Write,ACK
5.718838200000000,418,208,180,Write,ACK
5.718933400000000,418,208,176,Write,ACK
5.719028600000000,418,208,241,Write,ACK
5.719123800000000,418,208,153,Write,ACK
5.719219000000000,418,208,130,Write,ACK
5.719314100000000,418,208,168,Write,ACK
5.719409300000000,418,208,45,Write,ACK
5.719504500000000,418,208,85,Write,ACK
5.719751100000000,419,208,109,Write,ACK
5.719846300000000,419,208,4,Write,ACK
5.719941500000000,419,208,224,Write,ACK
5.720182900000000,420,208,111,Write,ACK
5.720408200000000,421,209,132,Read,ACK
5.720504300000000,421,209,148,Read,ACK
5.720600500000000,421,209,164,Read,ACK
5.720696600000000,421,209,200,Read,ACK
5.720792800000000,421,209,8,Read,ACK
5.720889000000000,421,209,205,Read,ACK
5.720985200000000,421,209,216,Read,ACK
5.721081400000000,421,209,184,Read,ACK
5.721177500000000,421,209,180,Read,ACK
5.721273700000000,421,209,176,Read,ACK
5.721369900000000,421,209,241,Read,ACK
5.721466100000000,421,209,153,Read,ACK
5.721562200000000,421,209,130,Read,ACK
5.721658400000000,421,209,168,Read,ACK
5.721754600000000,421,209,45,Read,ACK
5.721850700000000,421,209,85,Read,NAK
5.722258800000000,422,208,109,Write,ACK
5.722353900000000,422,208,4,Write,ACK
5.722449000000000,422,208,240,Write,ACK
5.722755500000000,423,208,111,Write,ACK
5.722850700000000,423,208,125,Write,ACK
5.722945900000000,423,208,152,Write,ACK
5.723041100000000,423,208,168,Write,ACK
5.723136200000000,423,208,14,Write,ACK
5.723231400000000,423,208,22,Write,ACK
5.723326600000000,423,208,30,Write,ACK
5.723421800000000,423,208,162,Write,ACK
5.723517000000000,423,208,44,Write,ACK
5.723612100000000,423,208,84,Write,ACK
5.723707300000000,423,208,124,Write,ACK
5.723802500000000,423,208,146,Write,ACK
5.723897700000000,423,208,164,Write,ACK
5.723992800000000,423,208,240,Write,ACK
5.724088000000000,423,208,44,Write,ACK
5.724183200000000,423,208,80,Write,ACK
5.724278400000000,423,208,120,Write,ACK
5.724535000000000,424,208,109,Write,ACK
5.724630200000000,424,208,4,Write,ACK
5.724725300000000,424,208,240,Write,ACK
5.724966900000000,425,208,111,Write,ACK
5.725192100000000,426,209,125,Read,ACK
5.725288300000000,426,209,152,Read,ACK
5.725384500000000,426,209,168,Read,ACK
5.725480600000000,426,209,14,Read,ACK
5.725576700000000,426,209,22,Read,ACK
5.725672900000000,426,209,30,Read,ACK
5.725769100000000,426,209,162,Read,ACK
5.725865200000000,426,209,44,Read,ACK
5.725961400000000,426,209,84,Read,ACK
5.726057600000000,426,209,124,Read,ACK
5.726153800000000,426,209,146,Read,ACK
5.726250000000000,426,209,164,Read,ACK
5.726346100000000,426,209,240,Read,ACK
5.726442300000000,426,209,44,Read,ACK
5.726538500000000,426,209,80,Read,ACK
5.726634600000000,426,209,120,Read,NAK
5.727032700000000,427,208,109,Write,ACK
5.727134700000000,427,208,5,Write,ACK
5.727229900000000,427,208,0,Write,ACK
5.727536300000000,428,208,111,Write,ACK
5.727631500000000,428,208,241,Write,ACK
5.727726600000000,428,208,132,Write,ACK
5.727821800000000,428,208,168,Write,ACK
5.727917000000000,428,208,152,Write,ACK
5.728012200000000,428,208,196,Write,ACK
5.728107400000000,428,208,205,Write,ACK
5.728202500000000,428,208,252,Write,ACK
5.728297700000000,428,208,216,Write,ACK
5.728392900000000,428,208,13,Write,ACK
5.728488100000000,428,208,219,Write,ACK
5.728583300000000,428,208,168,Write,ACK
5.728678400000000,428,208,252,Write,ACK
5.728773600000000,428,208,45,Write,ACK
5.728868800000000,428,208,243,Write,ACK
5.728964000000000,428,208,217,Write,ACK
5.729059100000000,428,208,186,Write,ACK
5.729305800000000,429,208,109,Write,ACK
5.729400900000000,429,208,5,Write,ACK
5.729496100000000,429,208,0,Write,ACK
5.729737700000000,430,208,111,Write,ACK
5.729962900000000,431,209,241,Read,ACK
5.730059100000000,431,209,132,Read,ACK
5.730155200000000,431,209,168,Read,ACK
5.730251400000000,431,209,152,Read,ACK
5.730347600000000,431,209,196,Read,ACK
5.730443800000000,431,209,205,Read,ACK
5.730540000000000,431,209,252,Read,ACK
5.730636100000000,431,209,216,Read,ACK
5.730732200000000,431,209,13,Read,ACK
5.730828400000000,431,209,219,Read,ACK
5.730924500000000,431,209,168,Read,ACK
5.731020700000000,431,209,252,Read,ACK
5.731116900000000,431,209,45,Read,ACK
5.731213100000000,431,209,243,Read,ACK
5.731309300000000,431,209,217,Read,ACK
5.731405400000000,431,209,186,Read,NAK
5.731808500000000,432,208,109,Write,ACK
5.731903600000000,432,208,5,Write,ACK
5.731998800000000,432,208,16,Write,ACK
5.732310300000000,433,208,111,Write,ACK
5.732405500000000,433,208,166,Write,ACK
5.732500700000000,433,208,248,Write,ACK
5.732595800000000,433,208,218,Write,ACK
5.732691000000000,433,208,186,Write,ACK
5.732786100000000,433,208,166,Write,ACK
5.732881200000000,433,208,222,Write,ACK
5.732976400000000,433,208,216,Write,ACK
5.733071600000000,433,208,186,Write,ACK
5.733166800000000,433,208,178,Write,ACK
5.733262000000000,433,208,182,Write,ACK
5.733357100000000,433,208,134,Write,ACK
5.733452300000000,433,208,150,Write,ACK
5.733547500000000,433,208,166,Write,ACK
5.733642600000000,433,208,208,Write,ACK
5.733737800000000,433,208,243,Write,ACK
5.733833000000000,433,208,200,Write,ACK
5.734079600000000,434,208,109,Write,ACK
5.734174800000000,434,208,5,Write,ACK
5.734269900000000,434,208,16,Write,ACK
5.734511400000000,435,208,111,Write,ACK
5.734736600000000,436,209,166,Read,ACK
5.734832800000000,436,209,248,Read,ACK
5.734928900000000,436,209,218,Read,ACK
5.735025100000000,436,209,186,Read,ACK
5.735121300000000,436,209,166,Read,ACK
5.735217500000000,436,209,222,Read,ACK
5.735313700000000,436,209,216,Read,ACK
5.735409800000000,436,209,186,Read,ACK
5.735506000000000,436,209,178,Read,ACK
5.735602200000000,436,209,182,Read,ACK
5.735698400000000,436,209,134,Read,ACK
5.735794600000000,436,209,150,Read,ACK
5.735890700000000,436,209,166,Read,ACK
5.735986900000000,436,209,208,Read,ACK
5.736083100000000,436,209,243,Read,ACK
5.736179200000000,436,209,200,Read,NAK
5.736577200000000,437,208,109,Write,ACK
5.736672400000000,437,208,5,Write,ACK
5.736767500000000,437,208,32,Write,ACK
5.737074000000000,438,208,111,Write,ACK
5.737169200000000,438,208,65,Write,ACK
5.737264400000000,438,208,218,Write,ACK
5.737359500000000,438,208,166,Write,ACK
5.737454700000000,438,208,200,Write,ACK
5.737549900000000,438,208,248,Write,ACK
5.737645100000000,438,208,216,Write,ACK
5.737740300000000,438,208,176,Write,ACK
5.737835400000000,438,208,180,Write,ACK
5.737930600000000,438,208,184,Write,ACK
5.738025800000000,438,208,130,Write,ACK
5.738121000000000,438,208,168,Write,ACK
5.738216200000000,438,208,146,Write,ACK
5.738311300000000,438,208,245,Write,ACK
5.738406500000000,438,208,44,Write,ACK
5.738501700000000,438,208,84,Write,ACK
5.738596900000000,438,208,136,Write,ACK
5.738843500000000,439,208,109,Write,ACK
5.738938700000000,439,208,5,Write,ACK
5.739033800000000,439,208,32,Write,ACK
5.739280300000000,440,208,111,Write,ACK
5.739505600000000,441,209,65,Read,ACK
5.739601800000000,441,209,218,Read,ACK
5.739698000000000,441,209,166,Read,ACK
5.739794100000000,441,209,200,Read,ACK
5.739890200000000,441,209,248,Read,ACK
5.739986400000000,441,209,216,Read,ACK
5.740082500000000,441,209,176,Read,ACK
5.740178700000000,441,209,180,Read,ACK
5.740274900000000,441,209,184,Read,ACK
5.740371100000000,441,209,130,Read,ACK
5.740467300000000,441,209,168,Read,ACK
5.740563400000000,441,209,146,Read,ACK
5.740659600000000,441,209,245,Read,ACK
5.740755800000000,441,209,44,Read,ACK
5.740852000000000,441,209,84,Read,ACK
5.740948100000000,441,209,136,Read,NAK
5.741356100000000,442,208,109,Write,ACK
5.741451300000000,442,208,5,Write,ACK
5.741546500000000,442,208,48,Write,ACK
5.741853000000000,443,208,111,Write,ACK
5.741948100000000,443,208,152,Write,ACK
5.742043300000000,443,208,241,Write,ACK
5.742138400000000,443,208,53,Write,ACK
5.742233600000000,443,208,217,Write,ACK
5.742328800000000,443,208,244,Write,ACK
5.742424000000000,443,208,24,Write,ACK
5.742519100000000,443,208,216,Write,ACK
5.742614300000000,443,208,241,Write,ACK
5.742709500000000,443,208,162,Write,ACK
5.742804700000000,443,208,208,Write,ACK
5.742899900000000,443,208,248,Write,ACK
5.742995000000000,443,208,249,Write,ACK
5.743090200000000,443,208,168,Write,ACK
5.743185400000000,443,208,132,Write,ACK
5.743280600000000,443,208,217,Write,ACK
5.743375800000000,443,208,199,Write,ACK
5.743622400000000,444,208,109,Write,ACK
5.743717500000000,444,208,5,Write,ACK
5.743812700000000,444,208,48,Write,ACK
5.744054300000000,445,208,111,Write,ACK
5.744279500000000,446,209,152,Read,ACK
5.744375700000000,446,209,241,Read,ACK
5.744471800000000,446,209,53,Read,ACK
5.744568000000000,446,209,217,Read,ACK
5.744664200000000,446,209,244,Read,ACK
5.744760400000000,446,209,24,Read,ACK
5.744856600000000,446,209,216,Read,ACK
5.744952700000000,446,209,241,Read,ACK
5.745048800000000,446,209,162,Read,ACK
5.745145000000000,446,209,208,Read,ACK
5.745241200000000,446,209,248,Read,ACK
5.745337300000000,446,209,249,Read,ACK
5.745433500000000,446,209,168,Read,ACK
5.745529700000000,446,209,132,Read,ACK
5.745625900000000,446,209,217,Read,ACK
5.745722000000000,446,209,199,Read,NAK
5.746125100000000,447,208,109,Write,ACK
5.746220200000000,447,208,5,Write,ACK
5.746315400000000,447,208,64,Write,ACK
5.746621900000000,448,208,111,Write,ACK
5.746717100000000,448,208,223,Write,ACK
5.746812300000000,448,208,248,Write,ACK
5.746907400000000,448,208,248,Write,ACK
5.747002600000000,448,208,131,Write,ACK
5.747097700000000,448,208,197,Write,ACK
5.747192900000000,448,208,218,Write,ACK
5.747288000000000,448,208,223,Write,ACK
5.747383200000000,448,208,105,Write,ACK
5.747478400000000,448,208,223,Write,ACK
5.747573600000000,448,208,131,Write,ACK
5.747668800000000,448,208,193,Write,ACK
5.747763900000000,448,208,216,Write,ACK
5.747859100000000,448,208,244,Write,ACK
5.747954300000000,448,208,1,Write,ACK
5.748049500000000,448,208,20,Write,ACK
5.748144600000000,448,208,241,Write,ACK
5.748391300000000,449,208,109,Write,ACK
5.748486400000000,449,208,5,Write,ACK
5.748581600000000,449,208,64,Write,ACK
5.748823100000000,450,208,111,Write,ACK
5.749048300000000,451,209,223,Read,ACK
5.749144400000000,451,209,248,Read,ACK
5.749240600000000,451,209,248,Read,ACK
5.749336800000000,451,209,131,Read,ACK
5.749433000000000,451,209,197,Read,ACK
5.749529200000000,451,209,218,Read,ACK
5.749625300000000,451,209,223,Read,ACK
5.749721500000000,451,209,105,Read,ACK
5.749817700000000,451,209,223,Read,ACK
5.749913900000000,451,209,131,Read,ACK
5.750010000000000,451,209,193,Read,ACK
5.750106200000000,451,209,216,Read,ACK
5.750202400000000,451,209,244,Read,ACK
5.750298600000000,451,209,1,Read,ACK
5.750394800000000,451,209,20,Read,ACK
5.750490900000000,451,209,241,Read,NAK
5.750888900000000,452,208,109,Write,ACK
5.750984100000000,452,208,5,Write,ACK
5.751079200000000,452,208,80,Write,ACK
5.751385700000000,453,208,111,Write,ACK
5.751480900000000,453,208,168,Write,ACK
5.751576000000000,453,208,130,Write,ACK
5.751671200000000,453,208,78,Write,ACK
5.751766400000000,453,208,168,Write,ACK
5.751861600000000,453,208,132,Write,ACK
5.751956700000000,453,208,243,Write,ACK
5.752051900000000,453,208,17,Write,ACK
5.752147100000000,453,208,209,Write,ACK
5.752242300000000,453,208,130,Write,ACK
5.752337500000000,453,208,245,Write,ACK
5.752432600000000,453,208,217,Write,ACK
5.752527800000000,453,208,146,Write,ACK
5.752623000000000,453,208,40,Write,ACK
5.752718200000000,453,208,151,Write,ACK
5.752813400000000,453,208,136,Write,ACK
5.752908500000000,453,208,241,Write,ACK
5.753155100000000,454,208,109,Write,ACK
5.753250300000000,454,208,5,Write,ACK
5.753345500000000,454,208,80,Write,ACK
5.753587000000000,455,208,111,Write,ACK
5.753812300000000,456,209,168,Read,ACK
5.753908500000000,456,209,130,Read,ACK
5.754004600000000,456,209,78,Read,ACK
5.754100800000000,456,209,168,Read,ACK
5.754197000000000,456,209,132,Read,ACK
5.754293200000000,456,209,243,Read,ACK
5.754389300000000,456,209,17,Read,ACK
5.754485500000000,456,209,209,Read,ACK
5.754581700000000,456,209,130,Read,ACK
5.754677900000000,456,209,245,Read,ACK
5.754774100000000,456,209,217,Read,ACK
5.754870200000000,456,209,146,Read,ACK
5.754966400000000,456,209,40,Read,ACK
5.755062600000000,456,209,151,Read,ACK
5.755158800000000,456,209,136,Read,ACK
5.755254900000000,456,209,241,Read,NAK
5.755653000000000,457,208,109,Write,ACK
5.755748200000000,457,208,5,Write,ACK
5.755843300000000,457,208,96,Write,ACK
5.756149800000000,458,208,111,Write,ACK
5.756244900000000,458,208,9,Write,ACK
5.756340000000000,458,208,244,Write,ACK
5.756435200000000,458,208,28,Write,ACK
5.756530400000000,458,208,28,Write,ACK
5.756625600000000,458,208,216,Write,ACK
5.756720800000000,458,208,132,Write,ACK
5.756815900000000,458,208,168,Write,ACK
5.756911100000000,458,208,243,Write,ACK
5.757006300000000,458,208,192,Write,ACK
5.757101500000000,458,208,249,Write,ACK
5.757196700000000,458,208,209,Write,ACK
5.757291800000000,458,208,217,Write,ACK
5.757387000000000,458,208,151,Write,ACK
5.757482200000000,458,208,130,Write,ACK
5.757577400000000,458,208,241,Write,ACK
5.757672600000000,458,208,41,Write,ACK
5.757919200000000,459,208,109,Write,ACK
5.758014300000000,459,208,5,Write,ACK
5.758109500000000,459,208,96,Write,ACK
5.758355200000000,460,208,111,Write,ACK
5.758580500000000,461,209,9,Read,ACK
5.758676700000000,461,209,244,Read,ACK
5.758772900000000,461,209,28,Read,ACK
5.758869100000000,461,209,28,Read,ACK
5.758965300000000,461,209,216,Read,ACK
5.759061400000000,461,209,132,Read,ACK
5.759157600000000,461,209,168,Read,ACK
5.759253800000000,461,209,243,Read,ACK
5.759350000000000,461,209,192,Read,ACK
5.759446100000000,461,209,249,Read,ACK
5.759542300000000,461,209,209,Read,ACK
5.759638500000000,461,209,217,Read,ACK
5.759734700000000,461,209,151,Read,ACK
5.759830900000000,461,209,130,Read,ACK
5.759927000000000,461,209,241,Read,ACK
5.760023200000000,461,209,41,Read,NAK
5.760436200000000,462,208,109,Write,ACK
5.760531400000000,462,208,5,Write,ACK
5.760626600000000,462,208,112,Write,ACK
5.760933100000000,463,208,111,Write,ACK
5.761028300000000,463,208,244,Write,ACK
5.761123500000000,463,208,13,Write,ACK
5.761218600000000,463,208,216,Write,ACK
5.761313700000000,463,208,243,Write,ACK
5.761408900000000,463,208,249,Write,ACK
5.761504000000000,463,208,249,Write,ACK
5.761599200000000,463,208,209,Write,ACK
5.761694400000000,463,208,217,Write,ACK
5.761789600000000,463,208,130,Write,ACK
5.761884700000000,463,208,244,Write,ACK
5.761979900000000,463,208,194,Write,ACK
5.762075100000000,463,208,3,Write,ACK
5.762170300000000,463,208,216,Write,ACK
5.762265500000000,463,208,222,Write,ACK
5.762360600000000,463,208,223,Write,ACK
5.762455800000000,463,208,26,Write,ACK
5.762702400000000,464,208,109,Write,ACK
5.762797600000000,464,208,5,Write,ACK
5.762892800000000,464,208,112,Write,ACK
5.763140500000000,465,208,111,Write,ACK
5.763365700000000,466,209,244,Read,ACK
5.763461900000000,466,209,13,Read,ACK
5.763558000000000,466,209,216,Read,ACK
5.763654200000000,466,209,243,Read,ACK
5.763750400000000,466,209,249,Read,ACK
5.763846600000000,466,209,249,Read,ACK
5.763942800000000,466,209,209,Read,ACK
5.764038900000000,466,209,217,Read,ACK
5.764140600000000,466,209,130,Read,ACK
5.764236700000000,466,209,244,Read,ACK
5.764332900000000,466,209,194,Read,ACK
5.764429000000000,466,209,3,Read,ACK
5.764525100000000,466,209,216,Read,ACK
5.764621300000000,466,209,222,Read,ACK
5.764717500000000,466,209,223,Read,ACK
5.764813600000000,466,209,26,Read,NAK
5.765211600000000,467,208,109,Write,ACK
5.765306800000000,467,208,5,Write,ACK
5.765401900000000,467,208,128,Write,ACK
5.765708400000000,468,208,111,Write,ACK
5.765803600000000,468,208,216,Write,ACK
5.765898800000000,468,208,241,Write,ACK
5.765993900000000,468,208,162,Write,ACK
5.766089100000000,468,208,250,Write,ACK
5.766184300000000,468,208,249,Write,ACK
5.766279500000000,468,208,168,Write,ACK
5.766374700000000,468,208,132,Write,ACK
5.766469800000000,468,208,152,Write,ACK
5.766565000000000,468,208,217,Write,ACK
5.766660200000000,468,208,199,Write,ACK
5.766755400000000,468,208,223,Write,ACK
5.766850600000000,468,208,248,Write,ACK
5.766945700000000,468,208,248,Write,ACK
5.767040900000000,468,208,248,Write,ACK
5.767140000000000,468,208,131,Write,ACK
5.767235100000000,468,208,199,Write,ACK
5.767481700000000,469,208,109,Write,ACK
5.767576800000000,469,208,5,Write,ACK
5.767672000000000,469,208,128,Write,ACK
5.767913500000000,470,208,111,Write,ACK
5.768139900000000,471,209,216,Read,ACK
5.768236100000000,471,209,241,Read,ACK
5.768332200000000,471,209,162,Read,ACK
5.768428400000000,471,209,250,Read,ACK
5.768524600000000,471,209,249,Read,ACK
5.768620800000000,471,209,168,Read,ACK
5.768717000000000,471,209,132,Read,ACK
5.768813100000000,471,209,152,Read,ACK
5.768909300000000,471,209,217,Read,ACK
5.769005500000000,471,209,199,Read,ACK
5.769101700000000,471,209,223,Read,ACK
5.769197800000000,471,209,248,Read,ACK
5.769294000000000,471,209,248,Read,ACK
5.769390200000000,471,209,248,Read,ACK
5.769486400000000,471,209,131,Read,ACK
5.769582500000000,471,209,199,Read,NAK
5.769980600000000,472,208,109,Write,ACK
5.770075800000000,472,208,5,Write,ACK
5.770170900000000,472,208,144,Write,ACK
5.770477400000000,473,208,111,Write,ACK
5.770572500000000,473,208,218,Write,ACK
5.770667700000000,473,208,223,Write,ACK
5.770762800000000,473,208,105,Write,ACK
5.770858000000000,473,208,223,Write,ACK
5.770953200000000,473,208,248,Write,ACK
5.771048400000000,473,208,131,Write,ACK
5.771143600000000,473,208,195,Write,ACK
5.771238700000000,473,208,216,Write,ACK
5.771333900000000,473,208,244,Write,ACK
5.771429100000000,473,208,1,Write,ACK
5.771524300000000,473,208,20,Write,ACK
5.771619400000000,473,208,241,Write,ACK
5.771714600000000,473,208,152,Write,ACK
5.771809800000000,473,208,168,Write,ACK
5.771905000000000,473,208,130,Write,ACK
5.772000200000000,473,208,46,Write,ACK
5.772256800000000,474,208,109,Write,ACK
5.772351900000000,474,208,5,Write,ACK
5.772447100000000,474,208,144,Write,ACK
5.772690000000000,475,208,111,Write,ACK
5.772915300000000,476,209,218,Read,ACK
5.773011500000000,476,209,223,Read,ACK
5.773107700000000,476,209,105,Read,ACK
5.773203900000000,476,209,223,Read,ACK
5.773300000000000,476,209,248,Read,ACK
5.773396200000000,476,209,131,Read,ACK
5.773492400000000,476,209,195,Read,ACK
5.773588600000000,476,209,216,Read,ACK
5.773684800000000,476,209,244,Read,ACK
5.773780900000000,476,209,1,Read,ACK
5.773877100000000,476,209,20,Read,ACK
5.773973300000000,476,209,241,Read,ACK
5.774069500000000,476,209,152,Read,ACK
5.774165700000000,476,209,168,Read,ACK
5.774261800000000,476,209,130,Read,ACK
5.774358000000000,476,209,46,Read,NAK
5.774761000000000,477,208,109,Write,ACK
5.774856200000000,477,208,5,Write,ACK
5.774951400000000,477,208,160,Write,ACK
5.775262900000000,478,208,111,Write,ACK
5.775358100000000,478,208,168,Write,ACK
5.775453200000000,478,208,132,Write,ACK
5.775548400000000,478,208,243,Write,ACK
5.775643500000000,478,208,17,Write,ACK
5.775738600000000,478,208,209,Write,ACK
5.775833800000000,478,208,130,Write,ACK
5.775929000000000,478,208,245,Write,ACK
5.776024200000000,478,208,217,Write,ACK
5.776119400000000,478,208,146,Write,ACK
5.776214500000000,478,208,80,Write,ACK
5.776309700000000,478,208,151,Write,ACK
5.776404900000000,478,208,136,Write,ACK
5.776500100000000,478,208,241,Write,ACK
5.776595300000000,478,208,9,Write,ACK
5.776690400000000,478,208,244,Write,ACK
5.776785600000000,478,208,28,Write,ACK
5.777032200000000,479,208,109,Write,ACK
5.777127300000000,479,208,5,Write,ACK
5.777222500000000,479,208,160,Write,ACK
5.777464000000000,480,208,111,Write,ACK
5.777689200000000,481,209,168,Read,ACK
5.777785300000000,481,209,132,Read,ACK
5.777881500000000,481,209,243,Read,ACK
5.777977700000000,481,209,17,Read,ACK
5.778073900000000,481,209,209,Read,ACK
5.778170100000000,481,209,130,Read,ACK
5.778266200000000,481,209,245,Read,ACK
5.778362400000000,481,209,217,Read,ACK
5.778458600000000,481,209,146,Read,ACK
5.778554800000000,481,209,80,Read,ACK
5.778651000000000,481,209,151,Read,ACK
5.778747100000000,481,209,136,Read,ACK
5.778843300000000,481,209,241,Read,ACK
5.778939500000000,481,209,9,Read,ACK
5.779035700000000,481,209,244,Read,ACK
5.779131800000000,481,209,28,Read,NAK
5.779529800000000,482,208,109,Write,ACK
5.779625000000000,482,208,5,Write,ACK
5.779720100000000,482,208,176,Write,ACK
5.780026600000000,483,208,111,Write,ACK
5.780121800000000,483,208,216,Write,ACK
5.780216900000000,483,208,132,Write,ACK
5.780312100000000,483,208,168,Write,ACK
5.780407300000000,483,208,243,Write,ACK
5.780502500000000,483,208,192,Write,ACK
5.780597700000000,483,208,248,Write,ACK
5.780692800000000,483,208,249,Write,ACK
5.780788000000000,483,208,209,Write,ACK
5.780883200000000,483,208,217,Write,ACK
5.780978400000000,483,208,151,Write,ACK
5.781073500000000,483,208,130,Write,ACK
5.781168700000000,483,208,241,Write,ACK
5.781263900000000,483,208,73,Write,ACK
5.781359100000000,483,208,244,Write,ACK
5.781454300000000,483,208,13,Write,ACK
5.781549400000000,483,208,216,Write,ACK
5.781796000000000,484,208,109,Write,ACK
5.781891200000000,484,208,5,Write,ACK
5.781986400000000,484,208,176,Write,ACK
5.782227900000000,485,208,111,Write,ACK
5.782453200000000,486,209,216,Read,ACK
5.782549400000000,486,209,132,Read,ACK
5.782645500000000,486,209,168,Read,ACK
5.782741700000000,486,209,243,Read,ACK
5.782837800000000,486,209,192,Read,ACK
5.782933900000000,486,209,248,Read,ACK
5.783030100000000,486,209,249,Read,ACK
5.783126300000000,486,209,209,Read,ACK
5.783222500000000,486,209,217,Read,ACK
5.783318700000000,486,209,151,Read,ACK
5.783414800000000,486,209,130,Read,ACK
5.783511000000000,486,209,241,Read,ACK
5.783607200000000,486,209,73,Read,ACK
5.783703400000000,486,209,244,Read,ACK
5.783799600000000,486,209,13,Read,ACK
5.783895700000000,486,209,216,Read,NAK
5.784303700000000,487,208,109,Write,ACK
5.784398900000000,487,208,5,Write,ACK
5.784494100000000,487,208,192,Write,ACK
5.784800600000000,488,208,111,Write,ACK
5.784895700000000,488,208,243,Write,ACK
5.784990800000000,488,208,249,Write,ACK
5.785086000000000,488,208,249,Write,ACK
5.785181200000000,488,208,209,Write,ACK
5.785276400000000,488,208,217,Write,ACK
5.785371500000000,488,208,130,Write,ACK
5.785466700000000,488,208,244,Write,ACK
5.785561900000000,488,208,196,Write,ACK
5.785657100000000,488,208,3,Write,ACK
5.785752300000000,488,208,216,Write,ACK
5.785847400000000,488,208,222,Write,ACK
5.785942600000000,488,208,223,Write,ACK
5.786037800000000,488,208,216,Write,ACK
5.786133000000000,488,208,241,Write,ACK
5.786228200000000,488,208,173,Write,ACK
5.786323300000000,488,208,136,Write,ACK
5.786569900000000,489,208,109,Write,ACK
5.786665100000000,489,208,5,Write,ACK
5.786760300000000,489,208,192,Write,ACK
5.787006800000000,490,208,111,Write,ACK
5.787237900000000,491,209,243,Read,ACK
5.787334100000000,491,209,249,Read,ACK
5.787430200000000,491,209,249,Read,ACK
5.787526400000000,491,209,209,Read,ACK
5.787622600000000,491,209,217,Read,ACK
5.787718800000000,491,209,130,Read,ACK
5.787815000000000,491,209,244,Read,ACK
5.787911100000000,491,209,196,Read,ACK
5.788007300000000,491,209,3,Read,ACK
5.788103500000000,491,209,216,Read,ACK
5.788199700000000,491,209,222,Read,ACK
5.788295800000000,491,209,223,Read,ACK
5.788392000000000,491,209,216,Read,ACK
5.788488200000000,491,209,241,Read,ACK
5.788584400000000,491,209,173,Read,ACK
5.788680500000000,491,209,136,Read,NAK
5.789083600000000,492,208,109,Write,ACK
5.789178700000000,492,208,5,Write,ACK
5.789273900000000,492,208,208,Write,ACK
5.789580400000000,493,208,111,Write,ACK
5.789675600000000,493,208,152,Write,ACK
5.789770800000000,493,208,204,Write,ACK
5.789866000000000,493,208,168,Write,ACK
5.789961100000000,493,208,9,Write,ACK
5.790056200000000,493,208,249,Write,ACK
5.790151400000000,493,208,217,Write,ACK
5.790246600000000,493,208,130,Write,ACK
5.790341700000000,493,208,146,Write,ACK
5.790436900000000,493,208,168,Write,ACK
5.790532100000000,493,208,245,Write,ACK
5.790627300000000,493,208,124,Write,ACK
5.790722400000000,493,208,241,Write,ACK
5.790817600000000,493,208,136,Write,ACK
5.790912800000000,493,208,58,Write,ACK
5.791008000000000,493,208,207,Write,ACK
5.791103200000000,493,208,148,Write,ACK
5.791349800000000,494,208,109,Write,ACK
5.791444900000000,494,208,5,Write,ACK
5.791540100000000,494,208,208,Write,ACK
5.791781600000000,495,208,111,Write,ACK
5.792006800000000,496,209,152,Read,ACK
5.792102900000000,496,209,204,Read,ACK
5.792199100000000,496,209,168,Read,ACK
5.792295300000000,496,209,9,Read,ACK
5.792391500000000,496,209,249,Read,ACK
5.792487700000000,496,209,217,Read,ACK
5.792583800000000,496,209,130,Read,ACK
5.792680000000000,496,209,146,Read,ACK
5.792776200000000,496,209,168,Read,ACK
5.792872400000000,496,209,245,Read,ACK
5.792968600000000,496,209,124,Read,ACK
5.793064700000000,496,209,241,Read,ACK
5.793160900000000,496,209,136,Read,ACK
5.793257100000000,496,209,58,Read,ACK
5.793353300000000,496,209,207,Read,ACK
5.793449400000000,496,209,148,Read,NAK
5.793847400000000,497,208,109,Write,ACK
5.793942600000000,497,208,5,Write,ACK
5.794037800000000,497,208,224,Write,ACK
5.794349300000000,498,208,111,Write,ACK
5.794444500000000,498,208,74,Write,ACK
5.794539700000000,498,208,110,Write,ACK
5.794634900000000,498,208,152,Write,ACK
5.794730000000000,498,208,219,Write,ACK
5.794825200000000,498,208,105,Write,ACK
5.794920400000000,498,208,49,Write,ACK
5.795015600000000,498,208,218,Write,ACK
5.795110700000000,498,208,173,Write,ACK
5.795205800000000,498,208,242,Write,ACK
5.795301000000000,498,208,222,Write,ACK
5.795396200000000,498,208,249,Write,ACK
5.795491300000000,498,208,216,Write,ACK
5.795586500000000,498,208,135,Write,ACK
5.795681700000000,498,208,149,Write,ACK
5.795776900000000,498,208,168,Write,ACK
5.795872100000000,498,208,242,Write,ACK
5.796118700000000,499,208,109,Write,ACK
5.796213800000000,499,208,5,Write,ACK
5.796309000000000,499,208,224,Write,ACK
5.796550500000000,500,208,111,Write,ACK
5.796775800000000,501,209,74,Read,ACK
5.796872000000000,501,209,110,Read,ACK
5.796968100000000,501,209,152,Read,ACK
5.797064300000000,501,209,219,Read,ACK
5.797160500000000,501,209,105,Read,ACK
5.797256700000000,501,209,49,Read,ACK
5.797352900000000,501,209,218,Read,ACK
5.797449000000000,501,209,173,Read,ACK
5.797545200000000,501,209,242,Read,ACK
5.797641400000000,501,209,222,Read,ACK
5.797737600000000,501,209,249,Read,ACK
5.797833800000000,501,209,216,Read,ACK
5.797929900000000,501,209,135,Read,ACK
5.798026100000000,501,209,149,Read,ACK
5.798122300000000,501,209,168,Read,ACK
5.798218400000000,501,209,242,Read,NAK
5.798616500000000,502,208,109,Write,ACK
5.798711700000000,502,208,5,Write,ACK
5.798806900000000,502,208,240,Write,ACK
5.799113400000000,503,208,111,Write,ACK
5.799208600000000,503,208,33,Write,ACK
5.799303700000000,503,208,209,Write,ACK
5.799398900000000,503,208,218,Write,ACK
5.799494100000000,503,208,165,Write,ACK
5.799589300000000,503,208,249,Write,ACK
5.799684500000000,503,208,244,Write,ACK
5.799779600000000,503,208,23,Write,ACK
5.799874800000000,503,208,217,Write,ACK
5.799970000000000,503,208,241,Write,ACK
5.800065200000000,503,208,174,Write,ACK
5.800160300000000,503,208,142,Write,ACK
5.800255400000000,503,208,208,Write,ACK
5.800350500000000,503,208,192,Write,ACK
5.800445700000000,503,208,195,Write,ACK
5.800540900000000,503,208,174,Write,ACK
5.800636100000000,503,208,130,Write,ACK
5.800882700000000,504,208,109,Write,ACK
5.800977900000000,504,208,5,Write,ACK
5.801073000000000,504,208,240,Write,ACK
5.801319600000000,505,208,111,Write,ACK
5.801544900000000,506,209,33,Read,ACK
5.801641000000000,506,209,209,Read,ACK
5.801737200000000,506,209,218,Read,ACK
5.801833400000000,506,209,165,Read,ACK
5.801929600000000,506,209,249,Read,ACK
5.802025800000000,506,209,244,Read,ACK
5.802121900000000,506,209,23,Read,ACK
5.802218100000000,506,209,217,Read,ACK
5.802314200000000,506,209,241,Read,ACK
5.802410300000000,506,209,174,Read,ACK
5.802506500000000,506,209,142,Read,ACK
5.802602600000000,506,209,208,Read,ACK
5.802698800000000,506,209,192,Read,ACK
5.802795000000000,506,209,195,Read,ACK
5.802891200000000,506,209,174,Read,ACK
5.802987300000000,506,209,130,Read,NAK
5.803400400000000,507,208,109,Write,ACK
5.803495600000000,507,208,6,Write,ACK
5.803590700000000,507,208,0,Write,ACK
5.803897300000000,508,208,111,Write,ACK
5.803992500000000,508,208,198,Write,ACK
5.804087600000000,508,208,132,Write,ACK
5.804182800000000,508,208,195,Write,ACK
5.804277900000000,508,208,168,Write,ACK
5.804373100000000,508,208,133,Write,ACK
5.804468200000000,508,208,149,Write,ACK
5.804563300000000,508,208,200,Write,ACK
5.804658500000000,508,208,165,Write,ACK
5.804753700000000,508,208,136,Write,ACK
5.804848900000000,508,208,242,Write,ACK
5.804944100000000,508,208,192,Write,ACK
5.805039200000000,508,208,241,Write,ACK
5.805134400000000,508,208,244,Write,ACK
5.805229600000000,508,208,1,Write,ACK
5.805324800000000,508,208,14,Write,ACK
5.805420000000000,508,208,241,Write,ACK
5.805666600000000,509,208,109,Write,ACK
5.805761700000000,509,208,6,Write,ACK
5.805856900000000,509,208,0,Write,ACK
5.806098500000000,510,208,111,Write,ACK
5.806323700000000,511,209,198,Read,ACK
5.806419800000000,511,209,132,Read,ACK
5.806515900000000,511,209,195,Read,ACK
5.806612100000000,511,209,168,Read,ACK
5.806708300000000,511,209,133,Read,ACK
5.806804500000000,511,209,149,Read,ACK
5.806900600000000,511,209,200,Read,ACK
5.806996800000000,511,209,165,Read,ACK
5.807093000000000,511,209,136,Read,ACK
5.807189200000000,511,209,242,Read,ACK
5.807285400000000,511,209,192,Read,ACK
5.807381500000000,511,209,241,Read,ACK
5.807477700000000,511,209,244,Read,ACK
5.807573900000000,511,209,1,Read,ACK
5.807670100000000,511,209,14,Read,ACK
5.807766200000000,511,209,241,Read,NAK
5.808164200000000,512,208,109,Write,ACK
5.808259400000000,512,208,6,Write,ACK
5.808354600000000,512,208,16,Write,ACK
5.808661000000000,513,208,111,Write,ACK
5.808756200000000,513,208,142,Write,ACK
5.808851300000000,513,208,158,Write,ACK
5.808946500000000,513,208,168,Write,ACK
5.809041700000000,513,208,198,Write,ACK
5.809136900000000,513,208,62,Write,ACK
5.809232100000000,513,208,86,Write,ACK
5.809327200000000,513,208,245,Write,ACK
5.809422400000000,513,208,84,Write,ACK
5.809517600000000,513,208,241,Write,ACK
5.809612800000000,513,208,136,Write,ACK
5.809708000000000,513,208,114,Write,ACK
5.809803100000000,513,208,244,Write,ACK
5.809898300000000,513,208,1,Write,ACK
5.809993500000000,513,208,21,Write,ACK
5.810088700000000,513,208,241,Write,ACK
5.810183900000000,513,208,152,Write,ACK
5.810430500000000,514,208,109,Write,ACK
5.810525600000000,514,208,6,Write,ACK
5.810620800000000,514,208,16,Write,ACK
5.810862400000000,515,208,111,Write,ACK
5.811087600000000,516,209,142,Read,ACK
5.811183800000000,516,209,158,Read,ACK
5.811279900000000,516,209,168,Read,ACK
5.811376100000000,516,209,198,Read,ACK
5.811472200000000,516,209,62,Read,ACK
5.811568400000000,516,209,86,Read,ACK
5.811664500000000,516,209,245,Read,ACK
5.811760700000000,516,209,84,Read,ACK
5.811856900000000,516,209,241,Read,ACK
5.811953100000000,516,209,136,Read,ACK
5.812049200000000,516,209,114,Read,ACK
5.812147100000000,516,209,244,Read,ACK
5.812243300000000,516,209,1,Read,ACK
5.812339500000000,516,209,21,Read,ACK
5.812435700000000,516,209,241,Read,ACK
5.812531700000000,516,209,152,Read,NAK
5.812929700000000,517,208,109,Write,ACK
5.813024900000000,517,208,6,Write,ACK
5.813120100000000,517,208,32,Write,ACK
5.813426600000000,518,208,111,Write,ACK
5.813521700000000,518,208,69,Write,ACK
5.813616800000000,518,208,133,Write,ACK
5.813712000000000,518,208,110,Write,ACK
5.813807200000000,518,208,245,Write,ACK
5.813902300000000,518,208,142,Write,ACK
5.813997500000000,518,208,158,Write,ACK
5.814092700000000,518,208,4,Write,ACK
5.814187900000000,518,208,136,Write,ACK
5.814283000000000,518,208,241,Write,ACK
5.814378200000000,518,208,66,Write,ACK
5.814473400000000,518,208,152,Write,ACK
5.814568600000000,518,208,90,Write,ACK
5.814663800000000,518,208,142,Write,ACK
5.814758900000000,518,208,158,Write,ACK
5.814854100000000,518,208,6,Write,ACK
5.814949300000000,518,208,136,Write,ACK
5.815195900000000,519,208,109,Write,ACK
5.815291100000000,519,208,6,Write,ACK
5.815386300000000,519,208,32,Write,ACK
5.815627800000000,520,208,111,Write,ACK
5.815853100000000,521,209,69,Read,ACK
5.815949300000000,521,209,133,Read,ACK
5.816045500000000,521,209,110,Read,ACK
5.816147700000000,521,209,245,Read,ACK
5.816243900000000,521,209,142,Read,ACK
5.816340100000000,521,209,158,Read,ACK
5.816436200000000,521,209,4,Read,ACK
5.816532400000000,521,209,136,Read,ACK
5.816628600000000,521,209,241,Read,ACK
5.816724800000000,521,209,66,Read,ACK
5.816821000000000,521,209,152,Read,ACK
5.816917100000000,521,209,90,Read,ACK
5.817013300000000,521,209,142,Read,ACK
5.817109500000000,521,209,158,Read,ACK
5.817205700000000,521,209,6,Read,ACK
5.817301800000000,521,209,136,Read,NAK
5.817704900000000,522,208,109,Write,ACK
5.817800100000000,522,208,6,Write,ACK
5.817895200000000,522,208,48,Write,ACK
5.818201700000000,523,208,111,Write,ACK
5.818296900000000,523,208,105,Write,ACK
5.818392100000000,523,208,244,Write,ACK
5.818487200000000,523,208,1,Write,ACK
5.818582400000000,523,208,28,Write,ACK
5.818677500000000,523,208,241,Write,ACK
5.818772700000000,523,208,152,Write,ACK
5.818867800000000,523,208,30,Write,ACK
5.818963000000000,523,208,17,Write,ACK
5.819058200000000,523,208,8,Write,ACK
5.819153400000000,523,208,208,Write,ACK
5.819248500000000,523,208,245,Write,ACK
5.819343700000000,523,208,4,Write,ACK
5.819438900000000,523,208,241,Write,ACK
5.819534100000000,523,208,30,Write,ACK
5.819629300000000,523,208,151,Write,ACK
5.819724400000000,523,208,2,Write,ACK
5.819971000000000,524,208,109,Write,ACK
5.820066200000000,524,208,6,Write,ACK
5.820161300000000,524,208,48,Write,ACK
5.820402800000000,525,208,111,Write,ACK
5.820628100000000,526,209,105,Read,ACK
5.820724200000000,526,209,244,Read,ACK
5.820820300000000,526,209,1,Read,ACK
5.820916500000000,526,209,28,Read,ACK
5.821012700000000,526,209,241,Read,ACK
5.821108900000000,526,209,152,Read,ACK
5.821205100000000,526,209,30,Read,ACK
5.821301200000000,526,209,17,Read,ACK
5.821397400000000,526,209,8,Read,ACK
5.821493600000000,526,209,208,Read,ACK
5.821589800000000,526,209,245,Read,ACK
5.821686000000000,526,209,4,Read,ACK
5.821782100000000,526,209,241,Read,ACK
5.821878300000000,526,209,30,Read,ACK
5.821974500000000,526,209,151,Read,ACK
5.822070600000000,526,209,2,Read,NAK
5.822468600000000,527,208,109,Write,ACK
5.822563800000000,527,208,6,Write,ACK
5.822659000000000,527,208,64,Write,ACK
5.822965400000000,528,208,111,Write,ACK
5.823060600000000,528,208,2,Write,ACK
5.823155800000000,528,208,152,Write,ACK
5.823250900000000,528,208,54,Write,ACK
5.823346100000000,528,208,37,Write,ACK
5.823441300000000,528,208,219,Write,ACK
5.823536500000000,528,208,249,Write,ACK
5.823631700000000,528,208,217,Write,ACK
5.823726800000000,528,208,133,Write,ACK
5.823822000000000,528,208,165,Write,ACK
5.823917200000000,528,208,243,Write,ACK
5.824012400000000,528,208,193,Write,ACK
5.824107600000000,528,208,218,Write,ACK
5.824202700000000,528,208,133,Write,ACK
5.824297900000000,528,208,165,Write,ACK
5.824393100000000,528,208,243,Write,ACK
5.824488300000000,528,208,223,Write,ACK
5.824734900000000,529,208,109,Write,ACK
5.824830100000000,529,208,6,Write,ACK
5.824925200000000,529,208,64,Write,ACK
5.825166700000000,530,208,111,Write,ACK
5.825392000000000,531,209,2,Read,ACK
5.825488200000000,531,209,152,Read,ACK
5.825584400000000,531,209,54,Read,ACK
5.825680500000000,531,209,37,Read,ACK
5.825776700000000,531,209,219,Read,ACK
5.825872800000000,531,209,249,Read,ACK
5.825969000000000,531,209,217,Read,ACK
5.826065100000000,531,209,133,Read,ACK
5.826161300000000,531,209,165,Read,ACK
5.826257500000000,531,209,243,Read,ACK
5.826353700000000,531,209,193,Read,ACK
5.826449800000000,531,209,218,Read,ACK
5.826546000000000,531,209,133,Read,ACK
5.826642200000000,531,209,165,Read,ACK
5.826738400000000,531,209,243,Read,ACK
5.826834500000000,531,209,223,Read,NAK
5.827232500000000,532,208,109,Write,ACK
5.827327700000000,532,208,6,Write,ACK
5.827422900000000,532,208,80,Write,ACK
5.827729400000000,533,208,111,Write,ACK
5.827824600000000,533,208,216,Write,ACK
5.827919700000000,533,208,133,Write,ACK
5.828014800000000,533,208,149,Write,ACK
5.828110000000000,533,208,168,Write,ACK
5.828205200000000,533,208,243,Write,ACK
5.828300400000000,533,208,9,Write,ACK
5.828395600000000,533,208,218,Write,ACK
5.828490700000000,533,208,165,Write,ACK
5.828585900000000,533,208,250,Write,ACK
5.828681100000000,533,208,216,Write,ACK
5.828776300000000,533,208,130,Write,ACK
5.828871400000000,533,208,146,Write,ACK
5.828966600000000,533,208,168,Write,ACK
5.829061800000000,533,208,245,Write,ACK
5.829157000000000,533,208,120,Write,ACK
5.829252200000000,533,208,241,Write,ACK
5.829498800000000,534,208,109,Write,ACK
5.829593900000000,534,208,6,Write,ACK
5.829689100000000,534,208,80,Write,ACK
5.829930700000000,535,208,111,Write,ACK
5.830155900000000,536,209,216,Read,ACK
5.830252100000000,536,209,133,Read,ACK
5.830348300000000,536,209,149,Read,ACK
5.830444400000000,536,209,168,Read,ACK
5.830540600000000,536,209,243,Read,ACK
5.830636800000000,536,209,9,Read,ACK
5.830733000000000,536,209,218,Read,ACK
5.830829100000000,536,209,165,Read,ACK
5.830925300000000,536,209,250,Read,ACK
5.831021400000000,536,209,216,Read,ACK
5.831117600000000,536,209,130,Read,ACK
5.831213700000000,536,209,146,Read,ACK
5.831309900000000,536,209,168,Read,ACK
5.831406100000000,536,209,245,Read,ACK
5.831502300000000,536,209,120,Read,ACK
5.831598400000000,536,209,241,Read,NAK
5.831996500000000,537,208,109,Write,ACK
5.832091700000000,537,208,6,Write,ACK
5.832186800000000,537,208,96,Write,ACK
5.832493300000000,538,208,111,Write,ACK
5.832588500000000,538,208,136,Write,ACK
5.832683700000000,538,208,26,Write,ACK
5.832778900000000,538,208,132,Write,ACK
5.832874000000000,538,208,159,Write,ACK
5.832969100000000,538,208,38,Write,ACK
5.833064300000000,538,208,136,Write,ACK
5.833159400000000,538,208,152,Write,ACK
5.833254600000000,538,208,33,Write,ACK
5.833349800000000,538,208,218,Write,ACK
5.833445000000000,538,208,244,Write,ACK
5.833540200000000,538,208,29,Write,ACK
5.833635300000000,538,208,243,Write,ACK
5.833730500000000,538,208,216,Write,ACK
5.833825700000000,538,208,135,Write,ACK
5.833920900000000,538,208,159,Write,ACK
5.834016100000000,538,208,57,Write,ACK
5.834272700000000,539,208,109,Write,ACK
5.834367800000000,539,208,6,Write,ACK
5.834463000000000,539,208,96,Write,ACK
5.834704500000000,540,208,111,Write,ACK
5.834929800000000,541,209,136,Read,ACK
5.835025900000000,541,209,26,Read,ACK
5.835122000000000,541,209,132,Read,ACK
5.835218200000000,541,209,159,Read,ACK
5.835314400000000,541,209,38,Read,ACK
5.835410600000000,541,209,136,Read,ACK
5.835506700000000,541,209,152,Read,ACK
5.835602900000000,541,209,33,Read,ACK
5.835699100000000,541,209,218,Read,ACK
5.835795300000000,541,209,244,Read,ACK
5.835891500000000,541,209,29,Read,ACK
5.835987600000000,541,209,243,Read,ACK
5.836083800000000,541,209,216,Read,ACK
5.836180000000000,541,209,135,Read,ACK
5.836276200000000,541,209,159,Read,ACK
5.836372300000000,541,209,57,Read,NAK
5.836770300000000,542,208,109,Write,ACK
5.836865500000000,542,208,6,Write,ACK
5.836960700000000,542,208,112,Write,ACK
5.837272200000000,543,208,111,Write,ACK
5.837367400000000,543,208,209,Write,ACK
5.837462600000000,543,208,175,Write,ACK
5.837557700000000,543,208,217,Write,ACK
5.837652900000000,543,208,223,Write,ACK
5.837748100000000,543,208,223,Write,ACK
5.837843300000000,543,208,251,Write,ACK
5.837938500000000,543,208,249,Write,ACK
5.838033600000000,543,208,244,Write,ACK
5.838128800000000,543,208,12,Write,ACK
5.838223900000000,543,208,243,Write,ACK
5.838319100000000,543,208,216,Write,ACK
5.838414200000000,543,208,250,Write,ACK
5.838509400000000,543,208,208,Write,ACK
5.838604600000000,543,208,248,Write,ACK
5.838699800000000,543,208,218,Write,ACK
5.838794900000000,543,208,249,Write,ACK
5.839041500000000,544,208,109,Write,ACK
5.839136700000000,544,208,6,Write,ACK
5.839231900000000,544,208,112,Write,ACK
5.839473400000000,545,208,111,Write,ACK
5.839698700000000,546,209,209,Read,ACK
5.839794900000000,546,209,175,Read,ACK
5.839891000000000,546,209,217,Read,ACK
5.839987200000000,546,209,223,Read,ACK
5.840083400000000,546,209,223,Read,ACK
5.840179600000000,546,209,251,Read,ACK
5.840275800000000,546,209,249,Read,ACK
5.840371900000000,546,209,244,Read,ACK
5.840468100000000,546,209,12,Read,ACK
5.840564300000000,546,209,243,Read,ACK
5.840660500000000,546,209,216,Read,ACK
5.840756600000000,546,209,250,Read,ACK
5.840852800000000,546,209,208,Read,ACK
5.840949000000000,546,209,248,Read,ACK
5.841045200000000,546,209,218,Read,ACK
5.841153500000000,546,209,249,Read,NAK
5.841551600000000,547,208,109,Write,ACK
5.841646800000000,547,208,6,Write,ACK
5.841741900000000,547,208,128,Write,ACK
5.842048500000000,548,208,111,Write,ACK
5.842150100000000,548,208,249,Write,ACK
5.842245300000000,548,208,208,Write,ACK
5.842340400000000,548,208,223,Write,ACK
5.842435600000000,548,208,217,Write,ACK
5.842530700000000,548,208,249,Write,ACK
5.842625900000000,548,208,216,Write,ACK
5.842721100000000,548,208,244,Write,ACK
5.842816300000000,548,208,11,Write,ACK
5.842911500000000,548,208,216,Write,ACK
5.843006600000000,548,208,243,Write,ACK
5.843101800000000,548,208,135,Write,ACK
5.843197000000000,548,208,159,Write,ACK
5.843292200000000,548,208,57,Write,ACK
5.843387400000000,548,208,209,Write,ACK
5.843482500000000,548,208,175,Write,ACK
5.843577700000000,548,208,217,Write,ACK
5.843824300000000,549,208,109,Write,ACK
5.843919500000000,549,208,6,Write,ACK
5.844014700000000,549,208,128,Write,ACK
5.844261200000000,550,208,111,Write,ACK
5.844486500000000,551,209,249,Read,ACK
5.844582700000000,551,209,208,Read,ACK
5.844678900000000,551,209,223,Read,ACK
5.844775000000000,551,209,217,Read,ACK
5.844871200000000,551,209,249,Read,ACK
5.844967400000000,551,209,216,Read,ACK
5.845063600000000,551,209,244,Read,ACK
5.845159700000000,551,209,11,Read,ACK
5.845255800000000,551,209,216,Read,ACK
5.845351900000000,551,209,243,Read,ACK
5.845448100000000,551,209,135,Read,ACK
5.845544300000000,551,209,159,Read,ACK
5.845640500000000,551,209,57,Read,ACK
5.845736600000000,551,209,209,Read,ACK
5.845832800000000,551,209,175,Read,ACK
5.845928900000000,551,209,217,Read,NAK
5.846337000000000,552,208,109,Write,ACK
5.846432200000000,552,208,6,Write,ACK
5.846527400000000,552,208,144,Write,ACK
5.846833900000000,553,208,111,Write,ACK
5.846929100000000,553,208,223,Write,ACK
5.847024300000000,553,208,223,Write,ACK
5.847119500000000,553,208,244,Write,ACK
5.847214600000000,553,208,29,Write,ACK
5.847309700000000,553,208,243,Write,ACK
5.847404800000000,553,208,216,Write,ACK
5.847500000000000,553,208,250,Write,ACK
5.847595200000000,553,208,252,Write,ACK
5.847690300000000,553,208,168,Write,ACK
5.847785500000000,553,208,105,Write,ACK
5.847880700000000,553,208,249,Write,ACK
5.847975900000000,553,208,249,Write,ACK
5.848071100000000,553,208,175,Write,ACK
5.848166200000000,553,208,208,Write,ACK
5.848261400000000,553,208,218,Write,ACK
5.848356600000000,553,208,222,Write,ACK
5.848603200000000,554,208,109,Write,ACK
5.848698400000000,554,208,6,Write,ACK
5.848793600000000,554,208,144,Write,ACK
5.849035100000000,555,208,111,Write,ACK
5.849265300000000,556,209,223,Read,ACK
5.849361400000000,556,209,223,Read,ACK
5.849457600000000,556,209,244,Read,ACK
5.849553700000000,556,209,29,Read,ACK
5.849649900000000,556,209,243,Read,ACK
5.849746100000000,556,209,216,Read,ACK
5.849842300000000,556,209,250,Read,ACK
5.849938500000000,556,209,252,Read,ACK
5.850034600000000,556,209,168,Read,ACK
5.850130800000000,556,209,105,Read,ACK
5.850227000000000,556,209,249,Read,ACK
5.850323200000000,556,209,249,Read,ACK
5.850419400000000,556,209,175,Read,ACK
5.850515500000000,556,209,208,Read,ACK
5.850611700000000,556,209,218,Read,ACK
5.850707800000000,556,209,222,Read,NAK
5.851105900000000,557,208,109,Write,ACK
5.851201000000000,557,208,6,Write,ACK
5.851296200000000,557,208,160,Write,ACK
5.851602600000000,558,208,111,Write,ACK
5.851697800000000,558,208,250,Write,ACK
5.851793000000000,558,208,217,Write,ACK
5.851888200000000,558,208,248,Write,ACK
5.851983300000000,558,208,143,Write,ACK
5.852078500000000,558,208,159,Write,ACK
5.852173700000000,558,208,168,Write,ACK
5.852268900000000,558,208,241,Write,ACK
5.852364100000000,558,208,204,Write,ACK
5.852459200000000,558,208,243,Write,ACK
5.852554400000000,558,208,152,Write,ACK
5.852649600000000,558,208,219,Write,ACK
5.852744800000000,558,208,69,Write,ACK
5.852840000000000,558,208,217,Write,ACK
5.852935100000000,558,208,175,Write,ACK
5.853030300000000,558,208,223,Write,ACK
5.853125500000000,558,208,208,Write,ACK
5.853372100000000,559,208,109,Write,ACK
5.853467300000000,559,208,6,Write,ACK
5.853562500000000,559,208,160,Write,ACK
5.853804000000000,560,208,111,Write,ACK
5.854029300000000,561,209,250,Read,ACK
5.854125500000000,561,209,217,Read,ACK
5.854221600000000,561,209,248,Read,ACK
5.854317800000000,561,209,143,Read,ACK
5.854413900000000,561,209,159,Read,ACK
5.854510100000000,561,209,168,Read,ACK
5.854606200000000,561,209,241,Read,ACK
5.854702400000000,561,209,204,Read,ACK
5.854798500000000,561,209,243,Read,ACK
5.854894700000000,561,209,152,Read,ACK
5.854990900000000,561,209,219,Read,ACK
5.855087100000000,561,209,69,Read,ACK
5.855183200000000,561,209,217,Read,ACK
5.855279400000000,561,209,175,Read,ACK
5.855375600000000,561,209,223,Read,ACK
5.855471700000000,561,209,208,Read,NAK
5.855869800000000,562,208,109,Write,ACK
5.855965000000000,562,208,6,Write,ACK
5.856060200000000,562,208,176,Write,ACK
5.856366600000000,563,208,111,Write,ACK
5.856461800000000,563,208,248,Write,ACK
5.856556900000000,563,208,216,Write,ACK
5.856652100000000,563,208,241,Write,ACK
5.856747200000000,563,208,143,Write,ACK
5.856842400000000,563,208,159,Write,ACK
5.856937600000000,563,208,168,Write,ACK
5.857032800000000,563,208,202,Write,ACK
5.857127900000000,563,208,243,Write,ACK
5.857223100000000,563,208,136,Write,ACK
5.857318300000000,563,208,9,Write,ACK
5.857413500000000,563,208,218,Write,ACK
5.857508700000000,563,208,175,Write,ACK
5.857603800000000,563,208,143,Write,ACK
5.857699000000000,563,208,203,Write,ACK
5.857794200000000,563,208,248,Write,ACK
5.857889400000000,563,208,216,Write,ACK
5.858136000000000,564,208,109,Write,ACK
5.858231200000000,564,208,6,Write,ACK
5.858326300000000,564,208,176,Write,ACK
5.858567900000000,565,208,111,Write,ACK
5.858793200000000,566,209,248,Read,ACK
5.858889400000000,566,209,216,Read,ACK
5.858985500000000,566,209,241,Read,ACK
5.859081700000000,566,209,143,Read,ACK
5.859177800000000,566,209,159,Read,ACK
5.859274000000000,566,209,168,Read,ACK
5.859370200000000,566,209,202,Read,ACK
5.859466400000000,566,209,243,Read,ACK
5.859562500000000,566,209,136,Read,ACK
5.859658700000000,566,209,9,Read,ACK
5.859754800000000,566,209,218,Read,ACK
5.859851000000000,566,209,175,Read,ACK
5.859947100000000,566,209,143,Read,ACK
5.860043300000000,566,209,203,Read,ACK
5.860139500000000,566,209,248,Read,ACK
5.860235600000000,566,209,216,Read,NAK
5.860633700000000,567,208,109,Write,ACK
5.860728900000000,567,208,6,Write,ACK
5.860824100000000,567,208,192,Write,ACK
5.861130600000000,568,208,111,Write,ACK
5.861225700000000,568,208,242,Write,ACK
5.861320900000000,568,208,173,Write,ACK
5.861416100000000,568,208,151,Write,ACK
5.861511200000000,568,208,141,Write,ACK
5.861606400000000,568,208,12,Write,ACK
5.861701600000000,568,208,217,Write,ACK
5.861796800000000,568,208,165,Write,ACK
5.861892000000000,568,208,223,Write,ACK
5.861987100000000,568,208,249,Write,ACK
5.862082300000000,568,208,186,Write,ACK
5.862177400000000,568,208,166,Write,ACK
5.862272600000000,568,208,243,Write,ACK
5.862367800000000,568,208,250,Write,ACK
5.862463000000000,568,208,244,Write,ACK
5.862558200000000,568,208,18,Write,ACK
5.862653300000000,568,208,242,Write,ACK
5.862899800000000,569,208,109,Write,ACK
5.862995000000000,569,208,6,Write,ACK
5.863090200000000,569,208,192,Write,ACK
5.863331700000000,570,208,111,Write,ACK
5.863556900000000,571,209,242,Read,ACK
5.863653100000000,571,209,173,Read,ACK
5.863749200000000,571,209,151,Read,ACK
5.863845400000000,571,209,141,Read,ACK
5.863941500000000,571,209,12,Read,ACK
5.864037700000000,571,209,217,Read,ACK
5.864133900000000,571,209,165,Read,ACK
5.864230100000000,571,209,223,Read,ACK
5.864326300000000,571,209,249,Read,ACK
5.864422400000000,571,209,186,Read,ACK
5.864518600000000,571,209,166,Read,ACK
5.864614800000000,571,209,243,Read,ACK
5.864711000000000,571,209,250,Read,ACK
5.864807100000000,571,209,244,Read,ACK
5.864903300000000,571,209,18,Read,ACK
5.864999400000000,571,209,242,Read,NAK
5.865407500000000,572,208,109,Write,ACK
5.865502600000000,572,208,6,Write,ACK
5.865597800000000,572,208,208,Write,ACK
5.865909400000000,573,208,111,Write,ACK
5.866004600000000,573,208,216,Write,ACK
5.866099800000000,573,208,149,Write,ACK
5.866194900000000,573,208,13,Write,ACK
5.866290100000000,573,208,209,Write,ACK
5.866385300000000,573,208,217,Write,ACK
5.866480400000000,573,208,186,Write,ACK
5.866575600000000,573,208,166,Write,ACK
5.866670800000000,573,208,243,Write,ACK
5.866765900000000,573,208,250,Write,ACK
5.866861000000000,573,208,218,Write,ACK
5.866956200000000,573,208,165,Write,ACK
5.867051400000000,573,208,242,Write,ACK
5.867153600000000,573,208,193,Write,ACK
5.867248700000000,573,208,186,Write,ACK
5.867343900000000,573,208,166,Write,ACK
5.867439100000000,573,208,243,Write,ACK
5.867685700000000,574,208,109,Write,ACK
5.867780800000000,574,208,6,Write,ACK
5.867875900000000,574,208,208,Write,ACK
5.868117500000000,575,208,111,Write,ACK
5.868342700000000,576,209,216,Read,ACK
5.868438900000000,576,209,149,Read,ACK
5.868535100000000,576,209,13,Read,ACK
5.868631200000000,576,209,209,Read,ACK
5.868727400000000,576,209,217,Read,ACK
5.868823500000000,576,209,186,Read,ACK
5.868919700000000,576,209,166,Read,ACK
5.869015800000000,576,209,243,Read,ACK
5.869112000000000,576,209,250,Read,ACK
5.869208200000000,576,209,218,Read,ACK
5.869304400000000,576,209,165,Read,ACK
5.869400600000000,576,209,242,Read,ACK
5.869496700000000,576,209,193,Read,ACK
5.869592900000000,576,209,186,Read,ACK
5.869689100000000,576,209,166,Read,ACK
5.869785200000000,576,209,243,Read,NAK
5.870183200000000,577,208,109,Write,ACK
5.870278400000000,577,208,6,Write,ACK
5.870373600000000,577,208,224,Write,ACK
5.870680100000000,578,208,111,Write,ACK
5.870775300000000,578,208,223,Write,ACK
5.870870400000000,578,208,216,Write,ACK
5.870965500000000,578,208,241,Write,ACK
5.871060700000000,578,208,186,Write,ACK
5.871155900000000,578,208,178,Write,ACK
5.871251100000000,578,208,182,Write,ACK
5.871346300000000,578,208,134,Write,ACK
5.871441400000000,578,208,150,Write,ACK
5.871536600000000,578,208,166,Write,ACK
5.871631800000000,578,208,208,Write,ACK
5.871727000000000,578,208,202,Write,ACK
5.871822100000000,578,208,243,Write,ACK
5.871917300000000,578,208,73,Write,ACK
5.872012500000000,578,208,218,Write,ACK
5.872107700000000,578,208,166,Write,ACK
5.872202900000000,578,208,203,Write,ACK
5.872449500000000,579,208,109,Write,ACK
5.872544600000000,579,208,6,Write,ACK
5.872639800000000,579,208,224,Write,ACK
5.872881300000000,580,208,111,Write,ACK
5.873106500000000,581,209,223,Read,ACK
5.873202700000000,581,209,216,Read,ACK
5.873298800000000,581,209,241,Read,ACK
5.873395000000000,581,209,186,Read,ACK
5.873491200000000,581,209,178,Read,ACK
5.873587400000000,581,209,182,Read,ACK
5.873683500000000,581,209,134,Read,ACK
5.873779700000000,581,209,150,Read,ACK
5.873875900000000,581,209,166,Read,ACK
5.873972100000000,581,209,208,Read,ACK
5.874068300000000,581,209,202,Read,ACK
5.874164400000000,581,209,243,Read,ACK
5.874260600000000,581,209,73,Read,ACK
5.874356800000000,581,209,218,Read,ACK
5.874453000000000,581,209,166,Read,ACK
5.874549100000000,581,209,203,Read,NAK
5.874947200000000,582,208,109,Write,ACK
5.875042400000000,582,208,6,Write,ACK
5.875137500000000,582,208,240,Write,ACK
5.875444000000000,583,208,111,Write,ACK
5.875539200000000,583,208,248,Write,ACK
5.875634400000000,583,208,216,Write,ACK
5.875729600000000,583,208,176,Write,ACK
5.875824700000000,583,208,180,Write,ACK
5.875919900000000,583,208,184,Write,ACK
5.876015000000000,583,208,216,Write,ACK
5.876110100000000,583,208,173,Write,ACK
5.876205300000000,583,208,132,Write,ACK
5.876300500000000,583,208,242,Write,ACK
5.876395700000000,583,208,192,Write,ACK
5.876490900000000,583,208,223,Write,ACK
5.876586000000000,583,208,241,Write,ACK
5.876681200000000,583,208,143,Write,ACK
5.876776400000000,583,208,203,Write,ACK
5.876871600000000,583,208,195,Write,ACK
5.876966800000000,583,208,168,Write,ACK
5.877213400000000,584,208,109,Write,ACK
5.877308500000000,584,208,6,Write,ACK
5.877403700000000,584,208,240,Write,ACK
5.877645200000000,585,208,111,Write,ACK
5.877870500000000,586,209,248,Read,ACK
5.877966700000000,586,209,216,Read,ACK
5.878062800000000,586,209,176,Read,ACK
5.878158900000000,586,209,180,Read,ACK
5.878255100000000,586,209,184,Read,ACK
5.878351300000000,586,209,216,Read,ACK
5.878447400000000,586,209,173,Read,ACK
5.878543600000000,586,209,132,Read,ACK
5.878639800000000,586,209,242,Read,ACK
5.878736000000000,586,209,192,Read,ACK
5.878832200000000,586,209,223,Read,ACK
5.878928300000000,586,209,241,Read,ACK
5.879024500000000,586,209,143,Read,ACK
5.879120700000000,586,209,203,Read,ACK
5.879216900000000,586,209,195,Read,ACK
5.879313000000000,586,209,168,Read,NAK
5.879711000000000,587,208,109,Write,ACK
5.879806200000000,587,208,7,Write,ACK
5.879901400000000,587,208,0,Write,ACK
5.880212900000000,588,208,111,Write,ACK
5.880308100000000,588,208,178,Write,ACK
5.880403300000000,588,208,182,Write,ACK
5.880498400000000,588,208,134,Write,ACK
5.880593600000000,588,208,150,Write,ACK
5.880688800000000,588,208,200,Write,ACK
5.880784000000000,588,208,193,Write,ACK
5.880879200000000,588,208,203,Write,ACK
5.880974300000000,588,208,195,Write,ACK
5.881069500000000,588,208,243,Write,ACK
5.881164700000000,588,208,176,Write,ACK
5.881259900000000,588,208,180,Write,ACK
5.881355100000000,588,208,136,Write,ACK
5.881450200000000,588,208,152,Write,ACK
5.881545400000000,588,208,168,Write,ACK
5.881640600000000,588,208,33,Write,ACK
5.881735800000000,588,208,219,Write,ACK
5.881982400000000,589,208,109,Write,ACK
5.882077600000000,589,208,7,Write,ACK
5.882172700000000,589,208,0,Write,ACK
5.882414300000000,590,208,111,Write,ACK
5.882639600000000,591,209,178,Read,ACK
5.882735700000000,591,209,182,Read,ACK
5.882831900000000,591,209,134,Read,ACK
5.882928100000000,591,209,150,Read,ACK
5.883024300000000,591,209,200,Read,ACK
5.883120500000000,591,209,193,Read,ACK
5.883216600000000,591,209,203,Read,ACK
5.883312800000000,591,209,195,Read,ACK
5.883409000000000,591,209,243,Read,ACK
5.883505200000000,591,209,176,Read,ACK
5.883601400000000,591,209,180,Read,ACK
5.883697500000000,591,209,136,Read,ACK
5.883793700000000,591,209,152,Read,ACK
5.883889900000000,591,209,168,Read,ACK
5.883986100000000,591,209,33,Read,ACK
5.884082200000000,591,209,219,Read,NAK
5.884480200000000,592,208,109,Write,ACK
5.884575400000000,592,208,7,Write,ACK
5.884670600000000,592,208,16,Write,ACK
5.884977100000000,593,208,111,Write,ACK
5.885072300000000,593,208,113,Write,ACK
5.885173700000000,593,208,141,Write,ACK
5.885268900000000,593,208,157,Write,ACK
5.885364100000000,593,208,113,Write,ACK
5.885459300000000,593,208,133,Write,ACK
5.885554400000000,593,208,149,Write,ACK
5.885649600000000,593,208,33,Write,ACK
5.885744800000000,593,208,217,Write,ACK
5.885840000000000,593,208,173,Write,ACK
5.885935200000000,593,208,242,Write,ACK
5.886030300000000,593,208,250,Write,ACK
5.886125500000000,593,208,216,Write,ACK
5.886220700000000,593,208,133,Write,ACK
5.886315900000000,593,208,151,Write,ACK
5.886411000000000,593,208,168,Write,ACK
5.886506200000000,593,208,40,Write,ACK
5.886752800000000,594,208,109,Write,ACK
5.886848000000000,594,208,7,Write,ACK
5.886943200000000,594,208,16,Write,ACK
5.887184700000000,595,208,111,Write,ACK
5.887409800000000,596,209,113,Read,ACK
5.887506000000000,596,209,141,Read,ACK
5.887602200000000,596,209,157,Read,ACK
5.887698400000000,596,209,113,Read,ACK
5.887794500000000,596,209,133,Read,ACK
5.887890700000000,596,209,149,Read,ACK
5.887986900000000,596,209,33,Read,ACK
5.888083100000000,596,209,217,Read,ACK
5.888179300000000,596,209,173,Read,ACK
5.888275400000000,596,209,242,Read,ACK
5.888371600000000,596,209,250,Read,ACK
5.888467800000000,596,209,216,Read,ACK
5.888564000000000,596,209,133,Read,ACK
5.888660200000000,596,209,151,Read,ACK
5.888756300000000,596,209,168,Read,ACK
5.888852500000000,596,209,40,Read,NAK
5.889252900000000,597,208,109,Write,ACK
5.889348000000000,597,208,7,Write,ACK
5.889443200000000,597,208,32,Write,ACK
5.889749800000000,598,208,111,Write,ACK
5.889844900000000,598,208,217,Write,ACK
5.889940100000000,598,208,244,Write,ACK
5.890035300000000,598,208,8,Write,ACK
5.890130500000000,598,208,216,Write,ACK
5.890225600000000,598,208,242,Write,ACK
5.890320800000000,598,208,141,Write,ACK
5.890416000000000,598,208,41,Write,ACK
5.890511200000000,598,208,218,Write,ACK
5.890606400000000,598,208,244,Write,ACK
5.890701500000000,598,208,5,Write,ACK
5.890796700000000,598,208,217,Write,ACK
5.890891900000000,598,208,242,Write,ACK
5.890987100000000,598,208,133,Write,ACK
5.891082300000000,598,208,164,Write,ACK
5.891177400000000,598,208,194,Write,ACK
5.891272600000000,598,208,242,Write,ACK
5.891519200000000,599,208,109,Write,ACK
5.891614400000000,599,208,7,Write,ACK
5.891709600000000,599,208,32,Write,ACK
5.891951100000000,600,208,111,Write,ACK
5.892176300000000,601,209,217,Read,ACK
5.892272500000000,601,209,244,Read,ACK
5.892368600000000,601,209,8,Read,ACK
5.892464800000000,601,209,216,Read,ACK
5.892560900000000,601,209,242,Read,ACK
5.892657100000000,601,209,141,Read,ACK
5.892753300000000,601,209,41,Read,ACK
5.892849500000000,601,209,218,Read,ACK
5.892945700000000,601,209,244,Read,ACK
5.893041800000000,601,209,5,Read,ACK
5.893138000000000,601,209,217,Read,ACK
5.893234200000000,601,209,242,Read,ACK
5.893330400000000,601,209,133,Read,ACK
5.893426600000000,601,209,164,Read,ACK
5.893522700000000,601,209,194,Read,ACK
5.893618800000000,601,209,242,Read,NAK
5.894016900000000,602,208,109,Write,ACK
5.894112100000000,602,208,7,Write,ACK
5.894207200000000,602,208,48,Write,ACK
5.894518800000000,603,208,111,Write,ACK
5.894614000000000,603,208,216,Write,ACK
5.894709200000000,603,208,168,Write,ACK
5.894804400000000,603,208,141,Write,ACK
5.894899500000000,603,208,148,Write,ACK
5.894994700000000,603,208,1,Write,ACK
5.895089900000000,603,208,209,Write,ACK
5.895185000000000,603,208,217,Write,ACK
5.895280200000000,603,208,244,Write,ACK
5.895375400000000,603,208,17,Write,ACK
5.895470500000000,603,208,242,Write,ACK
5.895565600000000,603,208,216,Write,ACK
5.895660800000000,603,208,135,Write,ACK
5.895756000000000,603,208,33,Write,ACK
5.895851100000000,603,208,216,Write,ACK
5.895946300000000,603,208,244,Write,ACK
5.896041500000000,603,208,10,Write,ACK
5.896298100000000,604,208,109,Write,ACK
5.896393300000000,604,208,7,Write,ACK
5.896488500000000,604,208,48,Write,ACK
5.896730000000000,605,208,111,Write,ACK
5.896955300000000,606,209,216,Read,ACK
5.897051500000000,606,209,168,Read,ACK
5.897147700000000,606,209,141,Read,ACK
5.897243800000000,606,209,148,Read,ACK
5.897340000000000,606,209,1,Read,ACK
5.897436100000000,606,209,209,Read,ACK
5.897532300000000,606,209,217,Read,ACK
5.897628400000000,606,209,244,Read,ACK
5.897724500000000,606,209,17,Read,ACK
5.897820700000000,606,209,242,Read,ACK
5.897916900000000,606,209,216,Read,ACK
5.898013100000000,606,209,135,Read,ACK
5.898109300000000,606,209,33,Read,ACK
5.898205400000000,606,209,216,Read,ACK
5.898301600000000,606,209,244,Read,ACK
5.898397700000000,606,209,10,Read,NAK
5.898795800000000,607,208,109,Write,ACK
5.898891000000000,607,208,7,Write,ACK
5.898986200000000,607,208,64,Write,ACK
5.899297700000000,608,208,111,Write,ACK
5.899392800000000,608,208,216,Write,ACK
5.899488000000000,608,208,242,Write,ACK
5.899583100000000,608,208,132,Write,ACK
5.899678200000000,608,208,152,Write,ACK
5.899773400000000,608,208,168,Write,ACK
5.899868600000000,608,208,200,Write,ACK
5.899963800000000,608,208,1,Write,ACK
5.900059000000000,608,208,209,Write,ACK
5.900158000000000,608,208,217,Write,ACK
5.900253200000000,608,208,244,Write,ACK
5.900348400000000,608,208,17,Write,ACK
5.900443600000000,608,208,216,Write,ACK
5.900538700000000,608,208,243,Write,ACK
5.900633800000000,608,208,164,Write,ACK
5.900729000000000,608,208,200,Write,ACK
5.900824100000000,608,208,187,Write,ACK
5.901070800000000,609,208,109,Write,ACK
5.901165900000000,609,208,7,Write,ACK
5.901261100000000,609,208,64,Write,ACK
5.901502600000000,610,208,111,Write,ACK
5.901727800000000,611,209,216,Read,ACK
5.901823900000000,611,209,242,Read,ACK
5.901920100000000,611,209,132,Read,ACK
5.902016300000000,611,209,152,Read,ACK
5.902112500000000,611,209,168,Read,ACK
5.902208600000000,611,209,200,Read,ACK
5.902304800000000,611,209,1,Read,ACK
5.902401000000000,611,209,209,Read,ACK
5.902497200000000,611,209,217,Read,ACK
5.902593400000000,611,209,244,Read,ACK
5.902689500000000,611,209,17,Read,ACK
5.902785700000000,611,209,216,Read,ACK
5.902881900000000,611,209,243,Read,ACK
5.902978100000000,611,209,164,Read,ACK
5.903074300000000,611,209,200,Read,ACK
5.903170400000000,611,209,187,Read,NAK
5.903568400000000,612,208,109,Write,ACK
5.903663500000000,612,208,7,Write,ACK
5.903758600000000,612,208,80,Write,ACK
5.904065200000000,613,208,111,Write,ACK
5.904160400000000,613,208,175,Write,ACK
5.904255500000000,613,208,208,Write,ACK
5.904350700000000,613,208,242,Write,ACK
5.904445900000000,613,208,222,Write,ACK
5.904541100000000,613,208,248,Write,ACK
5.904636200000000,613,208,248,Write,ACK
5.904731400000000,613,208,248,Write,ACK
5.904826500000000,613,208,248,Write,ACK
5.904921700000000,613,208,248,Write,ACK
5.905016900000000,613,208,248,Write,ACK
5.905112100000000,613,208,248,Write,ACK
5.905207300000000,613,208,248,Write,ACK
5.905302400000000,613,208,216,Write,ACK
5.905397600000000,613,208,241,Write,ACK
5.905492800000000,613,208,184,Write,ACK
5.905588000000000,613,208,246,Write,ACK
5.905834600000000,614,208,109,Write,ACK
5.905929800000000,614,208,7,Write,ACK
5.906024900000000,614,208,80,Write,ACK
5.906271400000000,615,208,111,Write,ACK
5.906496700000000,616,209,175,Read,ACK
5.906592900000000,616,209,208,Read,ACK
5.906689000000000,616,209,242,Read,ACK
5.906785100000000,616,209,222,Read,ACK
5.906881300000000,616,209,248,Read,ACK
5.906977500000000,616,209,248,Read,ACK
5.907073700000000,616,209,248,Read,ACK
5.907169800000000,616,209,248,Read,ACK
5.907266000000000,616,209,248,Read,ACK
5.907362200000000,616,209,248,Read,ACK
5.907458400000000,616,209,248,Read,ACK
5.907554600000000,616,209,248,Read,ACK
5.907650700000000,616,209,216,Read,ACK
5.907746900000000,616,209,241,Read,ACK
5.907843100000000,616,209,184,Read,ACK
5.907939200000000,616,209,246,Read,NAK
5.908347200000000,617,208,109,Write,ACK
5.908442400000000,617,208,7,Write,ACK
5.908537600000000,617,208,96,Write,ACK
5.908849200000000,618,208,111,Write,ACK
5.908944400000000,618,208,181,Write,ACK
5.909039500000000,618,208,185,Write,ACK
5.909134700000000,618,208,176,Write,ACK
5.909229800000000,618,208,138,Write,ACK
5.909325000000000,618,208,149,Write,ACK
5.909420200000000,618,208,163,Write,ACK
5.909515400000000,618,208,222,Write,ACK
5.909610600000000,618,208,60,Write,ACK
5.909705700000000,618,208,163,Write,ACK
5.909800900000000,618,208,217,Write,ACK
5.909896000000000,618,208,248,Write,ACK
5.909991100000000,618,208,216,Write,ACK
5.910086300000000,618,208,92,Write,ACK
5.910181500000000,618,208,163,Write,ACK
5.910276700000000,618,208,217,Write,ACK
5.910371900000000,618,208,248,Write,ACK
5.910618500000000,619,208,109,Write,ACK
5.910713600000000,619,208,7,Write,ACK
5.910808800000000,619,208,96,Write,ACK
5.911050400000000,620,208,111,Write,ACK
5.911280600000000,621,209,181,Read,ACK
5.911376800000000,621,209,185,Read,ACK
5.911473000000000,621,209,176,Read,ACK
5.911569100000000,621,209,138,Read,ACK
5.911665300000000,621,209,149,Read,ACK
5.911761500000000,621,209,163,Read,ACK
5.911857600000000,621,209,222,Read,ACK
5.911953700000000,621,209,60,Read,ACK
5.912049900000000,621,209,163,Read,ACK
5.912146100000000,621,209,217,Read,ACK
5.912242300000000,621,209,248,Read,ACK
5.912338400000000,621,209,216,Read,ACK
5.912434600000000,621,209,92,Read,ACK
5.912530800000000,621,209,163,Read,ACK
5.912627000000000,621,209,217,Read,ACK
5.912723100000000,621,209,248,Read,NAK
5.913122100000000,622,208,109,Write,ACK
5.913217200000000,622,208,7,Write,ACK
5.913312400000000,622,208,112,Write,ACK
5.913619000000000,623,208,111,Write,ACK
5.913714100000000,623,208,216,Write,ACK
5.913809300000000,623,208,124,Write,ACK
5.913904400000000,623,208,163,Write,ACK
5.913999500000000,623,208,217,Write,ACK
5.914094700000000,623,208,248,Write,ACK
5.914189900000000,623,208,216,Write,ACK
5.914285100000000,623,208,248,Write,ACK
5.914380300000000,623,208,249,Write,ACK
5.914475400000000,623,208,209,Write,ACK
5.914570600000000,623,208,165,Write,ACK
5.914665800000000,623,208,217,Write,ACK
5.914761000000000,623,208,223,Write,ACK
5.914856200000000,623,208,218,Write,ACK
5.914951300000000,623,208,250,Write,ACK
5.915046500000000,623,208,216,Write,ACK
5.915141700000000,623,208,177,Write,ACK
5.915388300000000,624,208,109,Write,ACK
5.915483500000000,624,208,7,Write,ACK
5.915578700000000,624,208,112,Write,ACK
5.915820100000000,625,208,111,Write,ACK
5.916045300000000,626,209,216,Read,ACK
5.916141500000000,626,209,124,Read,ACK
5.916237700000000,626,209,163,Read,ACK
5.916333800000000,626,209,217,Read,ACK
5.916430000000000,626,209,248,Read,ACK
5.916526200000000,626,209,216,Read,ACK
5.916622400000000,626,209,248,Read,ACK
5.916718600000000,626,209,249,Read,ACK
5.916814700000000,626,209,209,Read,ACK
5.916915900000000,626,209,165,Read,ACK
5.917012100000000,626,209,217,Read,ACK
5.917108300000000,626,209,223,Read,ACK
5.917204400000000,626,209,218,Read,ACK
5.917300600000000,626,209,250,Read,ACK
5.917396800000000,626,209,216,Read,ACK
5.917492900000000,626,209,177,Read,NAK
5.917891000000000,627,208,109,Write,ACK
5.917986100000000,627,208,7,Write,ACK
5.918081200000000,627,208,128,Write,ACK
5.918387700000000,628,208,111,Write,ACK
5.918482900000000,628,208,133,Write,ACK
5.918578100000000,628,208,48,Write,ACK
5.918673300000000,628,208,247,Write,ACK
5.918768400000000,628,208,217,Write,ACK
5.918863600000000,628,208,222,Write,ACK
5.918962600000000,628,208,216,Write,ACK
5.919057700000000,628,208,248,Write,ACK
5.919152900000000,628,208,48,Write,ACK
5.919248100000000,628,208,173,Write,ACK
5.919343300000000,628,208,218,Write,ACK
5.919438400000000,628,208,222,Write,ACK
5.919533600000000,628,208,216,Write,ACK
5.919628800000000,628,208,242,Write,ACK
5.919724000000000,628,208,180,Write,ACK
5.919819200000000,628,208,140,Write,ACK
5.919914300000000,628,208,153,Write,ACK
5.920161600000000,629,208,109,Write,ACK
5.920256700000000,629,208,7,Write,ACK
5.920351900000000,629,208,128,Write,ACK
5.920593400000000,630,208,111,Write,ACK
5.920818700000000,631,209,133,Read,ACK
5.920914900000000,631,209,48,Read,ACK
5.921011500000000,631,209,247,Read,ACK
5.921107700000000,631,209,217,Read,ACK
5.921203900000000,631,209,222,Read,ACK
5.921300100000000,631,209,216,Read,ACK
5.921396300000000,631,209,248,Read,ACK
5.921492400000000,631,209,48,Read,ACK
5.921588600000000,631,209,173,Read,ACK
5.921684800000000,631,209,218,Read,ACK
5.921781000000000,631,209,222,Read,ACK
5.921877200000000,631,209,216,Read,ACK
5.921973300000000,631,209,242,Read,ACK
5.922069500000000,631,209,180,Read,ACK
5.922165700000000,631,209,140,Read,ACK
5.922261800000000,631,209,153,Read,NAK
5.922659800000000,632,208,109,Write,ACK
5.922755000000000,632,208,7,Write,ACK
5.922850200000000,632,208,144,Write,ACK
5.923162000000000,633,208,111,Write,ACK
5.923257200000000,633,208,163,Write,ACK
5.923352400000000,633,208,45,Write,ACK
5.923447600000000,633,208,85,Write,ACK
5.923542800000000,633,208,125,Write,ACK
5.923637900000000,633,208,160,Write,ACK
5.923733100000000,633,208,131,Write,ACK
5.923828300000000,633,208,223,Write,ACK
5.923923500000000,633,208,223,Write,ACK
5.924018700000000,633,208,223,Write,ACK
5.924113800000000,633,208,181,Write,ACK
5.924208900000000,633,208,145,Write,ACK
5.924304100000000,633,208,160,Write,ACK
5.924399300000000,633,208,246,Write,ACK
5.924494400000000,633,208,41,Write,ACK
5.924589600000000,633,208,217,Write,ACK
5.924684800000000,633,208,251,Write,ACK
5.924931400000000,634,208,109,Write,ACK
5.925026600000000,634,208,7,Write,ACK
5.925121700000000,634,208,144,Write,ACK
5.925363200000000,635,208,111,Write,ACK
5.925588500000000,636,209,163,Read,ACK
5.925684700000000,636,209,45,Read,ACK
5.925780900000000,636,209,85,Read,ACK
5.925877100000000,636,209,125,Read,ACK
5.925973200000000,636,209,160,Read,ACK
5.926069400000000,636,209,131,Read,ACK
5.926165600000000,636,209,223,Read,ACK
5.926261800000000,636,209,223,Read,ACK
5.926358000000000,636,209,223,Read,ACK
5.926454100000000,636,209,181,Read,ACK
5.926550300000000,636,209,145,Read,ACK
5.926646500000000,636,209,160,Read,ACK
5.926742700000000,636,209,246,Read,ACK
5.926838800000000,636,209,41,Read,ACK
5.926935000000000,636,209,217,Read,ACK
5.927031100000000,636,209,251,Read,NAK
5.927444200000000,637,208,109,Write,ACK
5.927539400000000,637,208,7,Write,ACK
5.927634600000000,637,208,160,Write,ACK
5.927941100000000,638,208,111,Write,ACK
5.928036300000000,638,208,216,Write,ACK
5.928131500000000,638,208,160,Write,ACK
5.928226700000000,638,208,252,Write,ACK
5.928321800000000,638,208,41,Write,ACK
5.928417000000000,638,208,217,Write,ACK
5.928512200000000,638,208,250,Write,ACK
5.928607400000000,638,208,216,Write,ACK
5.928702600000000,638,208,160,Write,ACK
5.928797700000000,638,208,208,Write,ACK
5.928892900000000,638,208,81,Write,ACK
5.928988100000000,638,208,217,Write,ACK
5.929083300000000,638,208,248,Write,ACK
5.929178400000000,638,208,216,Write,ACK
5.929273500000000,638,208,252,Write,ACK
5.929368600000000,638,208,81,Write,ACK
5.929463800000000,638,208,217,Write,ACK
5.929710400000000,639,208,109,Write,ACK
5.929805600000000,639,208,7,Write,ACK
5.929900800000000,639,208,160,Write,ACK
5.930142300000000,640,208,111,Write,ACK
5.930367600000000,641,209,216,Read,ACK
5.930463800000000,641,209,160,Read,ACK
5.930560000000000,641,209,252,Read,ACK
5.930656100000000,641,209,41,Read,ACK
5.930752300000000,641,209,217,Read,ACK
5.930848500000000,641,209,250,Read,ACK
5.930944700000000,641,209,216,Read,ACK
5.931040900000000,641,209,160,Read,ACK
5.931137000000000,641,209,208,Read,ACK
5.931233100000000,641,209,81,Read,ACK
5.931329300000000,641,209,217,Read,ACK
5.931425400000000,641,209,248,Read,ACK
5.931521600000000,641,209,216,Read,ACK
5.931617700000000,641,209,252,Read,ACK
5.931713900000000,641,209,81,Read,ACK
5.931810000000000,641,209,217,Read,NAK
5.932208100000000,642,208,109,Write,ACK
5.932303200000000,642,208,7,Write,ACK
5.932398300000000,642,208,176,Write,ACK
5.932704800000000,643,208,111,Write,ACK
5.932800000000000,643,208,249,Write,ACK
5.932895200000000,643,208,216,Write,ACK
5.932990400000000,643,208,121,Write,ACK
5.933085500000000,643,208,217,Write,ACK
5.933180700000000,643,208,251,Write,ACK
5.933275900000000,643,208,216,Write,ACK
5.933371100000000,643,208,160,Write,ACK
5.933466300000000,643,208,208,Write,ACK
5.933561400000000,643,208,252,Write,ACK
5.933656600000000,643,208,121,Write,ACK
5.933751800000000,643,208,217,Write,ACK
5.933847000000000,643,208,250,Write,ACK
5.933942200000000,643,208,216,Write,ACK
5.934037300000000,643,208,161,Write,ACK
5.934132500000000,643,208,249,Write,ACK
5.934227700000000,643,208,249,Write,ACK
5.934474300000000,644,208,109,Write,ACK
5.934569500000000,644,208,7,Write,ACK
5.934664700000000,644,208,176,Write,ACK
5.934906200000000,645,208,111,Write,ACK
5.935131500000000,646,209,249,Read,ACK
5.935227600000000,646,209,216,Read,ACK
5.935323800000000,646,209,121,Read,ACK
5.935419900000000,646,209,217,Read,ACK
5.935516000000000,646,209,251,Read,ACK
5.935612200000000,646,209,216,Read,ACK
5.935708400000000,646,209,160,Read,ACK
5.935804600000000,646,209,208,Read,ACK
5.935900700000000,646,209,252,Read,ACK
5.935996900000000,646,209,121,Read,ACK
5.936093100000000,646,209,217,Read,ACK
5.936189300000000,646,209,250,Read,ACK
5.936285400000000,646,209,216,Read,ACK
5.936381600000000,646,209,161,Read,ACK
5.936477800000000,646,209,249,Read,ACK
5.936573900000000,646,209,249,Read,NAK
5.936972000000000,647,208,109,Write,ACK
5.937067200000000,647,208,7,Write,ACK
5.937162900000000,647,208,192,Write,ACK
5.937469400000000,648,208,111,Write,ACK
5.937564500000000,648,208,249,Write,ACK
5.937659700000000,648,208,249,Write,ACK
5.937754900000000,648,208,249,Write,ACK
5.937850100000000,648,208,160,Write,ACK
5.937945200000000,648,208,218,Write,ACK
5.938040400000000,648,208,223,Write,ACK
5.938135600000000,648,208,223,Write,ACK
5.938230800000000,648,208,223,Write,ACK
5.938326000000000,648,208,216,Write,ACK
5.938421100000000,648,208,161,Write,ACK
5.938516300000000,648,208,248,Write,ACK
5.938611500000000,648,208,248,Write,ACK
5.938706700000000,648,208,248,Write,ACK
5.938801900000000,648,208,248,Write,ACK
5.938897000000000,648,208,248,Write,ACK
5.938992200000000,648,208,172,Write,ACK
5.939238800000000,649,208,109,Write,ACK
5.939334000000000,649,208,7,Write,ACK
5.939429200000000,649,208,192,Write,ACK
5.939670700000000,650,208,111,Write,ACK
5.939896000000000,651,209,249,Read,ACK
5.939992200000000,651,209,249,Read,ACK
5.940088400000000,651,209,249,Read,ACK
5.940184500000000,651,209,160,Read,ACK
5.940280700000000,651,209,218,Read,ACK
5.940376800000000,651,209,223,Read,ACK
5.940473000000000,651,209,223,Read,ACK
5.940569100000000,651,209,223,Read,ACK
5.940665200000000,651,209,216,Read,ACK
5.940761400000000,651,209,161,Read,ACK
5.940857600000000,651,209,248,Read,ACK
5.940953800000000,651,209,248,Read,ACK
5.941050000000000,651,209,248,Read,ACK
5.941146100000000,651,209,248,Read,ACK
5.941242300000000,651,209,248,Read,ACK
5.941338400000000,651,209,172,Read,NAK
5.941741500000000,652,208,109,Write,ACK
5.941836700000000,652,208,7,Write,ACK
5.941931900000000,652,208,208,Write,ACK
5.942238400000000,653,208,111,Write,ACK
5.942333500000000,653,208,222,Write,ACK
5.942428700000000,653,208,248,Write,ACK
5.942523800000000,653,208,173,Write,ACK
5.942619000000000,653,208,222,Write,ACK
5.942714100000000,653,208,131,Write,ACK
5.942809300000000,653,208,147,Write,ACK
5.942904500000000,653,208,172,Write,ACK
5.942999700000000,653,208,44,Write,ACK
5.943094800000000,653,208,84,Write,ACK
5.943190000000000,653,208,124,Write,ACK
5.943285200000000,653,208,241,Write,ACK
5.943380400000000,653,208,168,Write,ACK
5.943475600000000,653,208,223,Write,ACK
5.943570700000000,653,208,223,Write,ACK
5.943665900000000,653,208,223,Write,ACK
5.943761100000000,653,208,246,Write,ACK
5.944007700000000,654,208,109,Write,ACK
5.944102900000000,654,208,7,Write,ACK
5.944198100000000,654,208,208,Write,ACK
5.944439500000000,655,208,111,Write,ACK
5.944669900000000,656,209,222,Read,ACK
5.944766100000000,656,209,248,Read,ACK
5.944862300000000,656,209,173,Read,ACK
5.944958400000000,656,209,222,Read,ACK
5.945054600000000,656,209,131,Read,ACK
5.945150800000000,656,209,147,Read,ACK
5.945246900000000,656,209,172,Read,ACK
5.945343100000000,656,209,44,Read,ACK
5.945439300000000,656,209,84,Read,ACK
5.945535400000000,656,209,124,Read,ACK
5.945631600000000,656,209,241,Read,ACK
5.945727700000000,656,209,168,Read,ACK
5.945823900000000,656,209,223,Read,ACK
5.945920000000000,656,209,223,Read,ACK
5.946016200000000,656,209,223,Read,ACK
5.946112300000000,656,209,246,Read,NAK
5.946510400000000,657,208,109,Write,ACK
5.946608200000000,657,208,7,Write,ACK
5.946703400000000,657,208,224,Write,ACK
5.947009900000000,658,208,111,Write,ACK
5.947105100000000,658,208,157,Write,ACK
5.947200300000000,658,208,44,Write,ACK
5.947295500000000,658,208,218,Write,ACK
5.947390700000000,658,208,160,Write,ACK
5.947485800000000,658,208,223,Write,ACK
5.947581000000000,658,208,217,Write,ACK
5.947676100000000,658,208,250,Write,ACK
5.947771300000000,658,208,219,Write,ACK
5.947866500000000,658,208,45,Write,ACK
5.947961700000000,658,208,248,Write,ACK
5.948056800000000,658,208,216,Write,ACK
5.948152000000000,658,208,168,Write,ACK
5.948247200000000,658,208,80,Write,ACK
5.948342400000000,658,208,218,Write,ACK
5.948437600000000,658,208,160,Write,ACK
5.948532700000000,658,208,208,Write,ACK
5.948789300000000,659,208,109,Write,ACK
5.948884500000000,659,208,7,Write,ACK
5.948979700000000,659,208,224,Write,ACK
5.949221200000000,660,208,111,Write,ACK
5.949446500000000,661,209,157,Read,ACK
5.949542700000000,661,209,44,Read,ACK
5.949638800000000,661,209,218,Read,ACK
5.949734900000000,661,209,160,Read,ACK
5.949831100000000,661,209,223,Read,ACK
5.949927200000000,661,209,217,Read,ACK
5.950023400000000,661,209,250,Read,ACK
5.950119600000000,661,209,219,Read,ACK
5.950215800000000,661,209,45,Read,ACK
5.950312000000000,661,209,248,Read,ACK
5.950408100000000,661,209,216,Read,ACK
5.950504300000000,661,209,168,Read,ACK
5.950600500000000,661,209,80,Read,ACK
5.950696700000000,661,209,218,Read,ACK
5.950792900000000,661,209,160,Read,ACK
5.950889000000000,661,209,208,Read,NAK
5.951297000000000,662,208,109,Write,ACK
5.951392200000000,662,208,7,Write,ACK
5.951487400000000,662,208,240,Write,ACK
5.951793800000000,663,208,111,Write,ACK
5.951888900000000,663,208,222,Write,ACK
5.951984100000000,663,208,217,Write,ACK
5.952079300000000,663,208,208,Write,ACK
5.952174500000000,663,208,248,Write,ACK
5.952269700000000,663,208,248,Write,ACK
5.952364800000000,663,208,248,Write,ACK
5.952460000000000,663,208,219,Write,ACK
5.952555200000000,663,208,85,Write,ACK
5.952650400000000,663,208,248,Write,ACK
5.952751700000000,663,208,216,Write,ACK
5.952846900000000,663,208,168,Write,ACK
5.952942000000000,663,208,120,Write,ACK
5.953037200000000,663,208,218,Write,ACK
5.953132400000000,663,208,160,Write,ACK
5.953227500000000,663,208,208,Write,ACK
5.953322700000000,663,208,223,Write,ACK
5.953569300000000,664,208,109,Write,ACK
5.953664500000000,664,208,7,Write,ACK
5.953759700000000,664,208,240,Write,ACK
5.954001200000000,665,208,111,Write,ACK
5.954226500000000,666,209,222,Read,ACK
5.954322700000000,666,209,217,Read,ACK
5.954418800000000,666,209,208,Read,ACK
5.954515000000000,666,209,248,Read,ACK
5.954611200000000,666,209,248,Read,ACK
5.954707400000000,666,209,248,Read,ACK
5.954803600000000,666,209,219,Read,ACK
5.954899700000000,666,209,85,Read,ACK
5.954995900000000,666,209,248,Read,ACK
5.955092100000000,666,209,216,Read,ACK
5.955188300000000,666,209,168,Read,ACK
5.955284500000000,666,209,120,Read,ACK
5.955380600000000,666,209,218,Read,ACK
5.955476800000000,666,209,160,Read,ACK
5.955573000000000,666,209,208,Read,ACK
5.955669100000000,666,209,223,Read,NAK
5.956072200000000,667,208,109,Write,ACK
5.956167300000000,667,208,8,Write,ACK
5.956262500000000,667,208,0,Write,ACK
5.956569000000000,668,208,111,Write,ACK
5.956664200000000,668,208,217,Write,ACK
5.956759400000000,668,208,208,Write,ACK
5.956854500000000,668,208,250,Write,ACK
5.956949600000000,668,208,248,Write,ACK
5.957044800000000,668,208,248,Write,ACK
5.957140000000000,668,208,248,Write,ACK
5.957235200000000,668,208,248,Write,ACK
5.957330300000000,668,208,219,Write,ACK
5.957425500000000,668,208,125,Write,ACK
5.957520700000000,668,208,248,Write,ACK
5.957615900000000,668,208,216,Write,ACK
5.957711100000000,668,208,156,Write,ACK
5.957806200000000,668,208,168,Write,ACK
5.957901400000000,668,208,140,Write,ACK
5.957996600000000,668,208,245,Write,ACK
5.958091800000000,668,208,48,Write,ACK
5.958338400000000,669,208,109,Write,ACK
5.958433600000000,669,208,8,Write,ACK
5.958528700000000,669,208,0,Write,ACK
5.958770200000000,670,208,111,Write,ACK
5.959000600000000,671,209,217,Read,ACK
5.959096700000000,671,209,208,Read,ACK
5.959192900000000,671,209,250,Read,ACK
5.959289000000000,671,209,248,Read,ACK
5.959385200000000,671,209,248,Read,ACK
5.959481400000000,671,209,248,Read,ACK
5.959577600000000,671,209,248,Read,ACK
5.959673800000000,671,209,219,Read,ACK
5.959769900000000,671,209,125,Read,ACK
5.959866100000000,671,209,248,Read,ACK
5.959962200000000,671,209,216,Read,ACK
5.960058300000000,671,209,156,Read,ACK
5.960154500000000,671,209,168,Read,ACK
5.960250700000000,671,209,140,Read,ACK
5.960346900000000,671,209,245,Read,ACK
5.960443000000000,671,209,48,Read,NAK
5.960841000000000,672,208,109,Write,ACK
5.960936200000000,672,208,8,Write,ACK
5.961031300000000,672,208,16,Write,ACK
5.961342800000000,673,208,111,Write,ACK
5.961438000000000,673,208,219,Write,ACK
5.961533200000000,673,208,56,Write,ACK
5.961628300000000,673,208,217,Write,ACK
5.961723500000000,673,208,208,Write,ACK
5.961818700000000,673,208,222,Write,ACK
5.961913900000000,673,208,223,Write,ACK
5.962009000000000,673,208,160,Write,ACK
5.962104200000000,673,208,208,Write,ACK
5.962199400000000,673,208,222,Write,ACK
5.962294600000000,673,208,223,Write,ACK
5.962389800000000,673,208,216,Write,ACK
5.962484900000000,673,208,168,Write,ACK
5.962580100000000,673,208,72,Write,ACK
5.962675300000000,673,208,219,Write,ACK
5.962770500000000,673,208,88,Write,ACK
5.962865700000000,673,208,217,Write,ACK
5.963122300000000,674,208,109,Write,ACK
5.963217400000000,674,208,8,Write,ACK
5.963312600000000,674,208,16,Write,ACK
5.963554100000000,675,208,111,Write,ACK
5.963779400000000,676,209,219,Read,ACK
5.963875600000000,676,209,56,Read,ACK
5.963971800000000,676,209,217,Read,ACK
5.964067900000000,676,209,208,Read,ACK
5.964167500000000,676,209,222,Read,ACK
5.964263700000000,676,209,223,Read,ACK
5.964359900000000,676,209,160,Read,ACK
5.964456100000000,676,209,208,Read,ACK
5.964552300000000,676,209,222,Read,ACK
5.964648400000000,676,209,223,Read,ACK
5.964744600000000,676,209,216,Read,ACK
5.964840800000000,676,209,168,Read,ACK
5.964937000000000,676,209,72,Read,ACK
5.965033200000000,676,209,219,Read,ACK
5.965129300000000,676,209,88,Read,ACK
5.965225300000000,676,209,217,Read,NAK
5.965623400000000,677,208,109,Write,ACK
5.965718500000000,677,208,8,Write,ACK
5.965813700000000,677,208,32,Write,ACK
5.966120200000000,678,208,111,Write,ACK
5.966215300000000,678,208,223,Write,ACK
5.966310500000000,678,208,208,Write,ACK
5.966405700000000,678,208,222,Write,ACK
5.966500800000000,678,208,160,Write,ACK
5.966596000000000,678,208,223,Write,ACK
5.966691200000000,678,208,208,Write,ACK
5.966786400000000,678,208,222,Write,ACK
5.966881600000000,678,208,216,Write,ACK
5.966976700000000,678,208,168,Write,ACK
5.967071900000000,678,208,104,Write,ACK
5.967167100000000,678,208,219,Write,ACK
5.967262300000000,678,208,112,Write,ACK
5.967357500000000,678,208,217,Write,ACK
5.967452600000000,678,208,223,Write,ACK
5.967547800000000,678,208,223,Write,ACK
5.967643000000000,678,208,160,Write,ACK
5.967889600000000,679,208,109,Write,ACK
5.967984800000000,679,208,8,Write,ACK
5.968080000000000,679,208,32,Write,ACK
5.968321400000000,680,208,111,Write,ACK
5.968546700000000,681,209,223,Read,ACK
5.968642900000000,681,209,208,Read,ACK
5.968739100000000,681,209,222,Read,ACK
5.968835300000000,681,209,160,Read,ACK
5.968931400000000,681,209,223,Read,ACK
5.969027600000000,681,209,208,Read,ACK
5.969123800000000,681,209,222,Read,ACK
5.969220000000000,681,209,216,Read,ACK
5.969316200000000,681,209,168,Read,ACK
5.969412300000000,681,209,104,Read,ACK
5.969508500000000,681,209,219,Read,ACK
5.969604700000000,681,209,112,Read,ACK
5.969700900000000,681,209,217,Read,ACK
5.969797000000000,681,209,223,Read,ACK
5.969893200000000,681,209,223,Read,ACK
5.969989300000000,681,209,160,Read,NAK
5.970402400000000,682,208,109,Write,ACK
5.970497600000000,682,208,8,Write,ACK
5.970592800000000,682,208,48,Write,ACK
5.970899300000000,683,208,111,Write,ACK
5.970994500000000,683,208,223,Write,ACK
5.971089700000000,683,208,223,Write,ACK
5.971184900000000,683,208,216,Write,ACK
5.971280000000000,683,208,241,Write,ACK
5.971375200000000,683,208,168,Write,ACK
5.971470400000000,683,208,136,Write,ACK
5.971565600000000,683,208,144,Write,ACK
5.971660800000000,683,208,44,Write,ACK
5.971755900000000,683,208,84,Write,ACK
5.971851100000000,683,208,124,Write,ACK
5.971946300000000,683,208,152,Write,ACK
5.972041500000000,683,208,168,Write,ACK
5.972136700000000,683,208,208,Write,ACK
5.972231800000000,683,208,92,Write,ACK
5.972327000000000,683,208,56,Write,ACK
5.972422200000000,683,208,209,Write,ACK
5.972668800000000,684,208,109,Write,ACK
5.972764000000000,684,208,8,Write,ACK
5.972859200000000,684,208,48,Write,ACK
5.973100600000000,685,208,111,Write,ACK
5.973325900000000,686,209,223,Read,ACK
5.973422100000000,686,209,223,Read,ACK
5.973518300000000,686,209,216,Read,ACK
5.973614500000000,686,209,241,Read,ACK
5.973710600000000,686,209,168,Read,ACK
5.973806800000000,686,209,136,Read,ACK
5.973903000000000,686,209,144,Read,ACK
5.973999200000000,686,209,44,Read,ACK
5.974095400000000,686,209,84,Read,ACK
5.974191500000000,686,209,124,Read,ACK
5.974287700000000,686,209,152,Read,ACK
5.974383900000000,686,209,168,Read,ACK
5.974480100000000,686,209,208,Read,ACK
5.974576300000000,686,209,92,Read,ACK
5.974672400000000,686,209,56,Read,ACK
5.974768500000000,686,209,209,Read,NAK
5.975168900000000,687,208,109,Write,ACK
5.975264100000000,687,208,8,Write,ACK
5.975359300000000,687,208,64,Write,ACK
5.975665800000000,688,208,111,Write,ACK
5.975761000000000,688,208,218,Write,ACK
5.975856200000000,688,208,242,Write,ACK
5.975951400000000,688,208,174,Write,ACK
5.976046600000000,688,208,140,Write,ACK
5.976141700000000,688,208,223,Write,ACK
5.976236900000000,688,208,249,Write,ACK
5.976332100000000,688,208,216,Write,ACK
5.976427300000000,688,208,176,Write,ACK
5.976522500000000,688,208,135,Write,ACK
5.976617600000000,688,208,168,Write,ACK
5.976712800000000,688,208,193,Write,ACK
5.976808000000000,688,208,193,Write,ACK
5.976903200000000,688,208,177,Write,ACK
5.976998300000000,688,208,136,Write,ACK
5.977093500000000,688,208,168,Write,ACK
5.977188700000000,688,208,198,Write,ACK
5.977445300000000,689,208,109,Write,ACK
5.977540500000000,689,208,8,Write,ACK
5.977635700000000,689,208,64,Write,ACK
5.977877200000000,690,208,111,Write,ACK
5.978102500000000,691,209,218,Read,ACK
5.978198600000000,691,209,242,Read,ACK
5.978294800000000,691,209,174,Read,ACK
5.978390900000000,691,209,140,Read,ACK
5.978487000000000,691,209,223,Read,ACK
5.978583200000000,691,209,249,Read,ACK
5.978679400000000,691,209,216,Read,ACK
5.978775600000000,691,209,176,Read,ACK
5.978871700000000,691,209,135,Read,ACK
5.978967900000000,691,209,168,Read,ACK
5.979064100000000,691,209,193,Read,ACK
5.979160300000000,691,209,193,Read,ACK
5.979256500000000,691,209,177,Read,ACK
5.979352600000000,691,209,136,Read,ACK
5.979448800000000,691,209,168,Read,ACK
5.979544900000000,691,209,198,Read,NAK
5.979943000000000,692,208,109,Write,ACK
5.980038200000000,692,208,8,Write,ACK
5.980133400000000,692,208,80,Write,ACK
5.980439800000000,693,208,111,Write,ACK
5.980534900000000,693,208,249,Write,ACK
5.980630100000000,693,208,249,Write,ACK
5.980725300000000,693,208,218,Write,ACK
5.980820400000000,693,208,54,Write,ACK
5.980915600000000,693,208,216,Write,ACK
5.981010800000000,693,208,168,Write,ACK
5.981106000000000,693,208,249,Write,ACK
5.981201200000000,693,208,218,Write,ACK
5.981296300000000,693,208,54,Write,ACK
5.981391500000000,693,208,216,Write,ACK
5.981486700000000,693,208,168,Write,ACK
5.981581900000000,693,208,249,Write,ACK
5.981677100000000,693,208,218,Write,ACK
5.981772200000000,693,208,54,Write,ACK
5.981867400000000,693,208,216,Write,ACK
5.981962600000000,693,208,168,Write,ACK
5.982209200000000,694,208,109,Write,ACK
5.982304400000000,694,208,8,Write,ACK
5.982399600000000,694,208,80,Write,ACK
5.982641100000000,695,208,111,Write,ACK
5.982866400000000,696,209,249,Read,ACK
5.982962600000000,696,209,249,Read,ACK
5.983058800000000,696,209,218,Read,ACK
5.983154900000000,696,209,54,Read,ACK
5.983251000000000,696,209,216,Read,ACK
5.983347200000000,696,209,168,Read,ACK
5.983443400000000,696,209,249,Read,ACK
5.983539500000000,696,209,218,Read,ACK
5.983635600000000,696,209,54,Read,ACK
5.983731800000000,696,209,216,Read,ACK
5.983828000000000,696,209,168,Read,ACK
5.983924200000000,696,209,249,Read,ACK
5.984020400000000,696,209,218,Read,ACK
5.984116500000000,696,209,54,Read,ACK
5.984212700000000,696,209,216,Read,ACK
5.984308800000000,696,209,168,Read,NAK
5.984711900000000,697,208,109,Write,ACK
5.984807100000000,697,208,8,Write,ACK
5.984902300000000,697,208,96,Write,ACK
5.985208700000000,698,208,111,Write,ACK
5.985303900000000,698,208,249,Write,ACK
5.985399100000000,698,208,218,Write,ACK
5.985494300000000,698,208,54,Write,ACK
5.985589400000000,698,208,216,Write,ACK
5.985684500000000,698,208,168,Write,ACK
5.985779700000000,698,208,249,Write,ACK
5.985874900000000,698,208,218,Write,ACK
5.985970100000000,698,208,54,Write,ACK
5.986065200000000,698,208,216,Write,ACK
5.986160400000000,698,208,247,Write,ACK
5.986255600000000,698,208,141,Write,ACK
5.986350800000000,698,208,157,Write,ACK
5.986446000000000,698,208,173,Write,ACK
5.986541100000000,698,208,248,Write,ACK
5.986636300000000,698,208,24,Write,ACK
5.986731500000000,698,208,218,Write,ACK
5.986978100000000,699,208,109,Write,ACK
5.987073300000000,699,208,8,Write,ACK
5.987169600000000,699,208,96,Write,ACK
5.987411100000000,700,208,111,Write,ACK
5.987636300000000,701,209,249,Read,ACK
5.987732500000000,701,209,218,Read,ACK
5.987828700000000,701,209,54,Read,ACK
5.987924900000000,701,209,216,Read,ACK
5.988021100000000,701,209,168,Read,ACK
5.988117200000000,701,209,249,Read,ACK
5.988213400000000,701,209,218,Read,ACK
5.988309600000000,701,209,54,Read,ACK
5.988405800000000,701,209,216,Read,ACK
5.988502000000000,701,209,247,Read,ACK
5.988598100000000,701,209,141,Read,ACK
5.988694300000000,701,209,157,Read,ACK
5.988790500000000,701,209,173,Read,ACK
5.988886700000000,701,209,248,Read,ACK
5.988982900000000,701,209,24,Read,ACK
5.989079000000000,701,209,218,Read,NAK
5.989477000000000,702,208,109,Write,ACK
5.989572200000000,702,208,8,Write,ACK
5.989667400000000,702,208,112,Write,ACK
5.989973900000000,703,208,111,Write,ACK
5.990069100000000,703,208,242,Write,ACK
5.990170100000000,703,208,174,Write,ACK
5.990265300000000,703,208,223,Write,ACK
5.990360500000000,703,208,216,Write,ACK
5.990455700000000,703,208,247,Write,ACK
5.990550800000000,703,208,173,Write,ACK
5.990646000000000,703,208,250,Write,ACK
5.990741100000000,703,208,48,Write,ACK
5.990836300000000,703,208,217,Write,ACK
5.990931400000000,703,208,164,Write,ACK
5.991026600000000,703,208,222,Write,ACK
5.991121800000000,703,208,249,Write,ACK
5.991217000000000,703,208,216,Write,ACK
5.991312100000000,703,208,242,Write,ACK
5.991407300000000,703,208,174,Write,ACK
5.991502500000000,703,208,222,Write,ACK
5.991749100000000,704,208,109,Write,ACK
5.991844300000000,704,208,8,Write,ACK
5.991939500000000,704,208,112,Write,ACK
5.992180900000000,705,208,111,Write,ACK
5.992406200000000,706,209,242,Read,ACK
5.992502400000000,706,209,174,Read,ACK
5.992598600000000,706,209,223,Read,ACK
5.992694700000000,706,209,216,Read,ACK
5.992790800000000,706,209,247,Read,ACK
5.992887000000000,706,209,173,Read,ACK
5.992983200000000,706,209,250,Read,ACK
5.993079400000000,706,209,48,Read,ACK
5.993175500000000,706,209,217,Read,ACK
5.993271700000000,706,209,164,Read,ACK
5.993367900000000,706,209,222,Read,ACK
5.993464100000000,706,209,249,Read,ACK
5.993560300000000,706,209,216,Read,ACK
5.993656400000000,706,209,242,Read,ACK
5.993752600000000,706,209,174,Read,ACK
5.993848700000000,706,209,222,Read,NAK
5.994246800000000,707,208,109,Write,ACK
5.994341900000000,707,208,8,Write,ACK
5.994437100000000,707,208,128,Write,ACK
5.994743600000000,708,208,111,Write,ACK
5.994838700000000,708,208,250,Write,ACK
5.994933900000000,708,208,249,Write,ACK
5.995029100000000,708,208,131,Write,ACK
5.995124200000000,708,208,167,Write,ACK
5.995219400000000,708,208,217,Write,ACK
5.995314600000000,708,208,195,Write,ACK
5.995409800000000,708,208,197,Write,ACK
5.995505000000000,708,208,199,Write,ACK
5.995600100000000,708,208,241,Write,ACK
5.995695300000000,708,208,136,Write,ACK
5.995790500000000,708,208,155,Write,ACK
5.995885700000000,708,208,167,Write,ACK
5.995980900000000,708,208,122,Write,ACK
5.996076000000000,708,208,173,Write,ACK
5.996171200000000,708,208,247,Write,ACK
5.996266400000000,708,208,222,Write,ACK
5.996513000000000,709,208,109,Write,ACK
5.996608200000000,709,208,8,Write,ACK
5.996703400000000,709,208,128,Write,ACK
5.996944900000000,710,208,111,Write,ACK
5.997170800000000,711,209,250,Read,ACK
5.997266900000000,711,209,249,Read,ACK
5.997363100000000,711,209,131,Read,ACK
5.997459300000000,711,209,167,Read,ACK
5.997555500000000,711,209,217,Read,ACK
5.997651600000000,711,209,195,Read,ACK
5.997747800000000,711,209,197,Read,ACK
5.997843900000000,711,209,199,Read,ACK
5.997940100000000,711,209,241,Read,ACK
5.998036200000000,711,209,136,Read,ACK
5.998132400000000,711,209,155,Read,ACK
5.998228600000000,711,209,167,Read,ACK
5.998324800000000,711,209,122,Read,ACK
5.998421000000000,711,209,173,Read,ACK
5.998517100000000,711,209,247,Read,ACK
5.998613300000000,711,209,222,Read,NAK
5.999016300000000,712,208,109,Write,ACK
5.999111500000000,712,208,8,Write,ACK
5.999206600000000,712,208,144,Write,ACK
5.999513200000000,713,208,111,Write,ACK
5.999608300000000,713,208,223,Write,ACK
5.999703500000000,713,208,164,Write,ACK
5.999798700000000,713,208,248,Write,ACK
5.999893800000000,713,208,132,Write,ACK
5.999988900000000,713,208,148,Write,ACK
6.000084100000000,713,208,8,Write,ACK
6.000179300000000,713,208,167,Write,ACK
6.000274500000000,713,208,151,Write,ACK
6.000369700000000,713,208,243,Write,ACK
6.000464800000000,713,208,0,Write,ACK
6.000560000000000,713,208,174,Write,ACK
6.000655200000000,713,208,242,Write,ACK
6.000750400000000,713,208,152,Write,ACK
6.000845600000000,713,208,25,Write,ACK
6.000940700000000,713,208,164,Write,ACK
6.001035900000000,713,208,136,Write,ACK
6.001292500000000,714,208,109,Write,ACK
6.001387700000000,714,208,8,Write,ACK
6.001482900000000,714,208,144,Write,ACK
6.001724400000000,715,208,111,Write,ACK
6.001949600000000,716,209,223,Read,ACK
6.002045700000000,716,209,164,Read,ACK
6.002141900000000,716,209,248,Read,ACK
6.002238100000000,716,209,132,Read,ACK
6.002334200000000,716,209,148,Read,ACK
6.002430400000000,716,209,8,Read,ACK
6.002526600000000,716,209,167,Read,ACK
6.002622800000000,716,209,151,Read,ACK
6.002718900000000,716,209,243,Read,ACK
6.002815100000000,716,209,0,Read,ACK
6.002911300000000,716,209,174,Read,ACK
6.003007500000000,716,209,242,Read,ACK
6.003103700000000,716,209,152,Read,ACK
6.003199800000000,716,209,25,Read,ACK
6.003296000000000,716,209,164,Read,ACK
6.003392100000000,716,209,136,Read,NAK
6.003790200000000,717,208,109,Write,ACK
6.003885300000000,717,208,8,Write,ACK
6.003980500000000,717,208,160,Write,ACK
6.004291900000000,718,208,111,Write,ACK
6.004387100000000,718,208,198,Write,ACK
6.004482300000000,718,208,163,Write,ACK
6.004577500000000,718,208,148,Write,ACK
6.004672700000000,718,208,136,Write,ACK
6.004767800000000,718,208,246,Write,ACK
6.004863000000000,718,208,50,Write,ACK
6.004958200000000,718,208,223,Write,ACK
6.005053400000000,718,208,242,Write,ACK
6.005148500000000,718,208,131,Write,ACK
6.005243700000000,718,208,147,Write,ACK
6.005338900000000,718,208,219,Write,ACK
6.005434100000000,718,208,9,Write,ACK
6.005529300000000,718,208,217,Write,ACK
6.005624400000000,718,208,242,Write,ACK
6.005719600000000,718,208,170,Write,ACK
6.005814800000000,718,208,223,Write,ACK
6.006061400000000,719,208,109,Write,ACK
6.006156600000000,719,208,8,Write,ACK
6.006251800000000,719,208,160,Write,ACK
6.006493200000000,720,208,111,Write,ACK
6.006718500000000,721,209,198,Read,ACK
6.006814700000000,721,209,163,Read,ACK
6.006910900000000,721,209,148,Read,ACK
6.007007100000000,721,209,136,Read,ACK
6.007103200000000,721,209,246,Read,ACK
6.007199300000000,721,209,50,Read,ACK
6.007295500000000,721,209,223,Read,ACK
6.007391700000000,721,209,242,Read,ACK
6.007487800000000,721,209,131,Read,ACK
6.007584000000000,721,209,147,Read,ACK
6.007680200000000,721,209,219,Read,ACK
6.007776400000000,721,209,9,Read,ACK
6.007872600000000,721,209,217,Read,ACK
6.007968700000000,721,209,242,Read,ACK
6.008064900000000,721,209,170,Read,ACK
6.008161000000000,721,209,223,Read,NAK
6.008559100000000,722,208,109,Write,ACK
6.008654200000000,722,208,8,Write,ACK
6.008749400000000,722,208,176,Write,ACK
6.009056000000000,723,208,111,Write,ACK
6.009151100000000,723,208,216,Write,ACK
6.009246200000000,723,208,216,Write,ACK
6.009341400000000,723,208,174,Write,ACK
6.009436500000000,723,208,248,Write,ACK
6.009531700000000,723,208,249,Write,ACK
6.009626900000000,723,208,209,Write,ACK
6.009722100000000,723,208,218,Write,ACK
6.009817300000000,723,208,243,Write,ACK
6.009912400000000,723,208,164,Write,ACK
6.010007600000000,723,208,222,Write,ACK
6.010102800000000,723,208,167,Write,ACK
6.010198000000000,723,208,241,Write,ACK
6.010293200000000,723,208,136,Write,ACK
6.010388300000000,723,208,155,Write,ACK
6.010483500000000,723,208,122,Write,ACK
6.010578700000000,723,208,216,Write,ACK
6.010825300000000,724,208,109,Write,ACK
6.010920500000000,724,208,8,Write,ACK
6.011015700000000,724,208,176,Write,ACK
6.011260900000000,725,208,111,Write,ACK
6.011486200000000,726,209,216,Read,ACK
6.011582400000000,726,209,216,Read,ACK
6.011678500000000,726,209,174,Read,ACK
6.011774700000000,726,209,248,Read,ACK
6.011870900000000,726,209,249,Read,ACK
6.011967100000000,726,209,209,Read,ACK
6.012063200000000,726,209,218,Read,ACK
6.012159400000000,726,209,243,Read,ACK
6.012255500000000,726,209,164,Read,ACK
6.012351700000000,726,209,222,Read,ACK
6.012447800000000,726,209,167,Read,ACK
6.012544000000000,726,209,241,Read,ACK
6.012640200000000,726,209,136,Read,ACK
6.012736400000000,726,209,155,Read,ACK
6.012832600000000,726,209,122,Read,ACK
6.012928700000000,726,209,216,Read,NAK
6.013341700000000,727,208,109,Write,ACK
6.013436900000000,727,208,8,Write,ACK
6.013532100000000,727,208,192,Write,ACK
6.013838600000000,728,208,111,Write,ACK
6.013933800000000,728,208,243,Write,ACK
6.014029000000000,728,208,132,Write,ACK
6.014124100000000,728,208,148,Write,ACK
6.014219300000000,728,208,174,Write,ACK
6.014314500000000,728,208,25,Write,ACK
6.014409700000000,728,208,249,Write,ACK
6.014504800000000,728,208,218,Write,ACK
6.014600000000000,728,208,170,Write,ACK
6.014695200000000,728,208,241,Write,ACK
6.014790400000000,728,208,223,Write,ACK
6.014885600000000,728,208,216,Write,ACK
6.014980700000000,728,208,168,Write,ACK
6.015075900000000,728,208,129,Write,ACK
6.015173400000000,728,208,192,Write,ACK
6.015268500000000,728,208,195,Write,ACK
6.015363600000000,728,208,197,Write,ACK
6.015610200000000,729,208,109,Write,ACK
6.015705400000000,729,208,8,Write,ACK
6.015800600000000,729,208,192,Write,ACK
6.016042100000000,730,208,111,Write,ACK
6.016268600000000,731,209,243,Read,ACK
6.016364700000000,731,209,132,Read,ACK
6.016460900000000,731,209,148,Read,ACK
6.016557000000000,731,209,174,Read,ACK
6.016653200000000,731,209,25,Read,ACK
6.016749400000000,731,209,249,Read,ACK
6.016845600000000,731,209,218,Read,ACK
6.016941800000000,731,209,170,Read,ACK
6.017037900000000,731,209,241,Read,ACK
6.017134100000000,731,209,223,Read,ACK
6.017230300000000,731,209,216,Read,ACK
6.017326500000000,731,209,168,Read,ACK
6.017422600000000,731,209,129,Read,ACK
6.017518800000000,731,209,192,Read,ACK
6.017615000000000,731,209,195,Read,ACK
6.017711100000000,731,209,197,Read,NAK
6.018109200000000,732,208,109,Write,ACK
6.018204300000000,732,208,8,Write,ACK
6.018299400000000,732,208,208,Write,ACK
6.018605900000000,733,208,111,Write,ACK
6.018701100000000,733,208,199,Write,ACK
6.018796300000000,733,208,163,Write,ACK
6.018891500000000,733,208,146,Write,ACK
6.018986600000000,733,208,131,Write,ACK
6.019081800000000,733,208,246,Write,ACK
6.019177000000000,733,208,40,Write,ACK
6.019272200000000,733,208,173,Write,ACK
6.019367400000000,733,208,222,Write,ACK
6.019462500000000,733,208,217,Write,ACK
6.019557700000000,733,208,248,Write,ACK
6.019652900000000,733,208,216,Write,ACK
6.019748100000000,733,208,163,Write,ACK
6.019843200000000,733,208,80,Write,ACK
6.019938400000000,733,208,173,Write,ACK
6.020033600000000,733,208,217,Write,ACK
6.020128800000000,733,208,248,Write,ACK
6.020375400000000,734,208,109,Write,ACK
6.020470600000000,734,208,8,Write,ACK
6.020565700000000,734,208,208,Write,ACK
6.020807300000000,735,208,111,Write,ACK
6.021032600000000,736,209,199,Read,ACK
6.021128800000000,736,209,163,Read,ACK
6.021224900000000,736,209,146,Read,ACK
6.021321100000000,736,209,131,Read,ACK
6.021417200000000,736,209,246,Read,ACK
6.021513300000000,736,209,40,Read,ACK
6.021609500000000,736,209,173,Read,ACK
6.021705600000000,736,209,222,Read,ACK
6.021801800000000,736,209,217,Read,ACK
6.021898000000000,736,209,248,Read,ACK
6.021994200000000,736,209,216,Read,ACK
6.022090400000000,736,209,163,Read,ACK
6.022186500000000,736,209,80,Read,ACK
6.022282700000000,736,209,173,Read,ACK
6.022378900000000,736,209,217,Read,ACK
6.022475000000000,736,209,248,Read,NAK
6.022873100000000,737,208,109,Write,ACK
6.022968300000000,737,208,8,Write,ACK
6.023063500000000,737,208,224,Write,ACK
6.023374900000000,738,208,111,Write,ACK
6.023470100000000,738,208,216,Write,ACK
6.023565200000000,738,208,163,Write,ACK
6.023660300000000,738,208,120,Write,ACK
6.023755500000000,738,208,173,Write,ACK
6.023850700000000,738,208,217,Write,ACK
6.023945900000000,738,208,248,Write,ACK
6.024041100000000,738,208,216,Write,ACK
6.024136200000000,738,208,248,Write,ACK
6.024231400000000,738,208,249,Write,ACK
6.024326600000000,738,208,209,Write,ACK
6.024425300000000,738,208,161,Write,ACK
6.024520400000000,738,208,218,Write,ACK
6.024615600000000,738,208,222,Write,ACK
6.024710800000000,738,208,195,Write,ACK
6.024805900000000,738,208,197,Write,ACK
6.024901100000000,738,208,199,Write,ACK
6.025147700000000,739,208,109,Write,ACK
6.025242900000000,739,208,8,Write,ACK
6.025338100000000,739,208,224,Write,ACK
6.025584600000000,740,208,111,Write,ACK
6.025809900000000,741,209,216,Read,ACK
6.025906100000000,741,209,163,Read,ACK
6.026002300000000,741,209,120,Read,ACK
6.026098400000000,741,209,173,Read,ACK
6.026194600000000,741,209,217,Read,ACK
6.026290700000000,741,209,248,Read,ACK
6.026386900000000,741,209,216,Read,ACK
6.026483000000000,741,209,248,Read,ACK
6.026579200000000,741,209,249,Read,ACK
6.026675300000000,741,209,209,Read,ACK
6.026771500000000,741,209,161,Read,ACK
6.026867700000000,741,209,218,Read,ACK
6.026963900000000,741,209,222,Read,ACK
6.027060000000000,741,209,195,Read,ACK
6.027156200000000,741,209,197,Read,ACK
6.027252300000000,741,209,199,Read,NAK
6.027655400000000,742,208,109,Write,ACK
6.027750600000000,742,208,8,Write,ACK
6.027845800000000,742,208,240,Write,ACK
6.028152300000000,743,208,111,Write,ACK
6.028247400000000,743,208,216,Write,ACK
6.028342600000000,743,208,161,Write,ACK
6.028437800000000,743,208,129,Write,ACK
6.028532900000000,743,208,148,Write,ACK
6.028628000000000,743,208,248,Write,ACK
6.028723200000000,743,208,24,Write,ACK
6.028818400000000,743,208,242,Write,ACK
6.028913600000000,743,208,176,Write,ACK
6.029008800000000,743,208,137,Write,ACK
6.029103900000000,743,208,172,Write,ACK
6.029199100000000,743,208,195,Write,ACK
6.029294300000000,743,208,197,Write,ACK
6.029389500000000,743,208,199,Write,ACK
6.029484600000000,743,208,241,Write,ACK
6.029579800000000,743,208,216,Write,ACK
6.029675000000000,743,208,184,Write,ACK
6.029921600000000,744,208,109,Write,ACK
6.030016800000000,744,208,8,Write,ACK
6.030112000000000,744,208,240,Write,ACK
6.030353400000000,745,208,111,Write,ACK
6.030578700000000,746,209,216,Read,ACK
6.030674800000000,746,209,161,Read,ACK
6.030771000000000,746,209,129,Read,ACK
6.030867100000000,746,209,148,Read,ACK
6.030963300000000,746,209,248,Read,ACK
6.031059500000000,746,209,24,Read,ACK
6.031155700000000,746,209,242,Read,ACK
6.031251900000000,746,209,176,Read,ACK
6.031348000000000,746,209,137,Read,ACK
6.031444200000000,746,209,172,Read,ACK
6.031540400000000,746,209,195,Read,ACK
6.031636600000000,746,209,197,Read,ACK
6.031732800000000,746,209,199,Read,ACK
6.031828900000000,746,209,241,Read,ACK
6.031925100000000,746,209,216,Read,ACK
6.032021200000000,746,209,184,Read,NAK
6.032429300000000,747,208,109,Write,ACK
6.032524400000000,747,208,9,Write,ACK
6.032619600000000,747,208,0,Write,ACK
6.032926200000000,748,208,111,Write,ACK
6.033021300000000,748,208,180,Write,ACK
6.033116500000000,748,208,176,Write,ACK
6.033211600000000,748,208,151,Write,ACK
6.033306800000000,748,208,134,Write,ACK
6.033402000000000,748,208,168,Write,ACK
6.033497200000000,748,208,49,Write,ACK
6.033592300000000,748,208,155,Write,ACK
6.033687500000000,748,208,6,Write,ACK
6.033782600000000,748,208,153,Write,ACK
6.033877800000000,748,208,7,Write,ACK
6.033972900000000,748,208,171,Write,ACK
6.034068100000000,748,208,151,Write,ACK
6.034163300000000,748,208,40,Write,ACK
6.034258500000000,748,208,136,Write,ACK
6.034353700000000,748,208,155,Write,ACK
6.034448800000000,748,208,240,Write,ACK
6.034695400000000,749,208,109,Write,ACK
6.034790600000000,749,208,9,Write,ACK
6.034885800000000,749,208,0,Write,ACK
6.035127300000000,750,208,111,Write,ACK
6.035352600000000,751,209,180,Read,ACK
6.035448700000000,751,209,176,Read,ACK
6.035544900000000,751,209,151,Read,ACK
6.035641100000000,751,209,134,Read,ACK
6.035737200000000,751,209,168,Read,ACK
6.035833300000000,751,209,49,Read,ACK
6.035929500000000,751,209,155,Read,ACK
6.036025700000000,751,209,6,Read,ACK
6.036121900000000,751,209,153,Read,ACK
6.036218100000000,751,209,7,Read,ACK
6.036314200000000,751,209,171,Read,ACK
6.036410400000000,751,209,151,Read,ACK
6.036506600000000,751,209,40,Read,ACK
6.036602800000000,751,209,136,Read,ACK
6.036698900000000,751,209,155,Read,ACK
6.036795100000000,751,209,240,Read,NAK
6.037193100000000,752,208,109,Write,ACK
6.037288300000000,752,208,9,Write,ACK
6.037383400000000,752,208,16,Write,ACK
6.037690000000000,753,208,111,Write,ACK
6.037785100000000,753,208,12,Write,ACK
6.037880200000000,753,208,32,Write,ACK
6.037975400000000,753,208,20,Write,ACK
6.038070600000000,753,208,64,Write,ACK
6.038165800000000,753,208,176,Write,ACK
6.038260900000000,753,208,180,Write,ACK
6.038356100000000,753,208,184,Write,ACK
6.038451300000000,753,208,240,Write,ACK
6.038546500000000,753,208,168,Write,ACK
6.038641600000000,753,208,138,Write,ACK
6.038736800000000,753,208,154,Write,ACK
6.038832000000000,753,208,40,Write,ACK
6.038927200000000,753,208,80,Write,ACK
6.039022400000000,753,208,120,Write,ACK
6.039117500000000,753,208,183,Write,ACK
6.039212700000000,753,208,155,Write,ACK
6.039459300000000,754,208,109,Write,ACK
6.039554500000000,754,208,9,Write,ACK
6.039649700000000,754,208,16,Write,ACK
6.039896200000000,755,208,111,Write,ACK
6.040121500000000,756,209,12,Read,ACK
6.040217600000000,756,209,32,Read,ACK
6.040313800000000,756,209,20,Read,ACK
6.040410000000000,756,209,64,Read,ACK
6.040506200000000,756,209,176,Read,ACK
6.040602400000000,756,209,180,Read,ACK
6.040698500000000,756,209,184,Read,ACK
6.040794700000000,756,209,240,Read,ACK
6.040890800000000,756,209,168,Read,ACK
6.040986900000000,756,209,138,Read,ACK
6.041083100000000,756,209,154,Read,ACK
6.041179300000000,756,209,40,Read,ACK
6.041275500000000,756,209,80,Read,ACK
6.041371700000000,756,209,120,Read,ACK
6.041467800000000,756,209,183,Read,ACK
6.041564000000000,756,209,155,Read,NAK
6.041967000000000,757,208,109,Write,ACK
6.042062200000000,757,208,9,Write,ACK
6.042157400000000,757,208,32,Write,ACK
6.042463900000000,758,208,111,Write,ACK
6.042559100000000,758,208,168,Write,ACK
6.042654200000000,758,208,41,Write,ACK
6.042749400000000,758,208,81,Write,ACK
6.042844600000000,758,208,121,Write,ACK
6.042939700000000,758,208,36,Write,ACK
6.043034800000000,758,208,112,Write,ACK
6.043130000000000,758,208,89,Write,ACK
6.043225200000000,758,208,68,Write,ACK
6.043320400000000,758,208,105,Write,ACK
6.043415500000000,758,208,56,Write,ACK
6.043510700000000,758,208,100,Write,ACK
6.043605900000000,758,208,72,Write,ACK
6.043701100000000,758,208,49,Write,ACK
6.043796300000000,758,208,241,Write,ACK
6.043891400000000,758,208,187,Write,ACK
6.043986600000000,758,208,171,Write,ACK
6.044233200000000,759,208,109,Write,ACK
6.044328400000000,759,208,9,Write,ACK
6.044423600000000,759,208,32,Write,ACK
6.044665100000000,760,208,111,Write,ACK
6.044890300000000,761,209,168,Read,ACK
6.044986500000000,761,209,41,Read,ACK
6.045082600000000,761,209,81,Read,ACK
6.045178800000000,761,209,121,Read,ACK
6.045274900000000,761,209,36,Read,ACK
6.045371100000000,761,209,112,Read,ACK
6.045467300000000,761,209,89,Read,ACK
6.045563500000000,761,209,68,Read,ACK
6.045659700000000,761,209,105,Read,ACK
6.045755800000000,761,209,56,Read,ACK
6.045852000000000,761,209,100,Read,ACK
6.045948200000000,761,209,72,Read,ACK
6.046044400000000,761,209,49,Read,ACK
6.046140500000000,761,209,241,Read,ACK
6.046236700000000,761,209,187,Read,ACK
6.046332800000000,761,209,171,Read,NAK
6.046730900000000,762,208,109,Write,ACK
6.046826100000000,762,208,9,Write,ACK
6.046921200000000,762,208,48,Write,ACK
6.047227600000000,763,208,111,Write,ACK
6.047322800000000,763,208,136,Write,ACK
6.047418000000000,763,208,0,Write,ACK
6.047513200000000,763,208,44,Write,ACK
6.047608400000000,763,208,84,Write,ACK
6.047703500000000,763,208,124,Write,ACK
6.047798700000000,763,208,240,Write,ACK
6.047893900000000,763,208,179,Write,ACK
6.047989100000000,763,208,139,Write,ACK
6.048084300000000,763,208,184,Write,ACK
6.048179400000000,763,208,168,Write,ACK
6.048274600000000,763,208,4,Write,ACK
6.048369800000000,763,208,40,Write,ACK
6.048465000000000,763,208,80,Write,ACK
6.048560100000000,763,208,120,Write,ACK
6.048655300000000,763,208,241,Write,ACK
6.048750500000000,763,208,176,Write,ACK
6.049000100000000,764,208,109,Write,ACK
6.049095300000000,764,208,9,Write,ACK
6.049190400000000,764,208,48,Write,ACK
6.049431900000000,765,208,111,Write,ACK
6.049657200000000,766,209,136,Read,ACK
6.049753400000000,766,209,0,Read,ACK
6.049849600000000,766,209,44,Read,ACK
6.049945800000000,766,209,84,Read,ACK
6.050042000000000,766,209,124,Read,ACK
6.050138100000000,766,209,240,Read,ACK
6.050234300000000,766,209,179,Read,ACK
6.050330500000000,766,209,139,Read,ACK
6.050426700000000,766,209,184,Read,ACK
6.050522800000000,766,209,168,Read,ACK
6.050619000000000,766,209,4,Read,ACK
6.050715200000000,766,209,40,Read,ACK
6.050811400000000,766,209,80,Read,ACK
6.050907600000000,766,209,120,Read,ACK
6.051003700000000,766,209,241,Read,ACK
6.051099900000000,766,209,176,Read,NAK
6.051497900000000,767,208,109,Write,ACK
6.051593100000000,767,208,9,Write,ACK
6.051688200000000,767,208,64,Write,ACK
6.051994800000000,768,208,111,Write,ACK
6.052089900000000,768,208,136,Write,ACK
6.052185000000000,768,208,180,Write,ACK
6.052280200000000,768,208,151,Write,ACK
6.052375400000000,768,208,38,Write,ACK
6.052470600000000,768,208,168,Write,ACK
6.052565700000000,768,208,89,Write,ACK
6.052660900000000,768,208,152,Write,ACK
6.052756100000000,768,208,187,Write,ACK
6.052851300000000,768,208,171,Write,ACK
6.052946400000000,768,208,179,Write,ACK
6.053041600000000,768,208,139,Write,ACK
6.053136800000000,768,208,2,Write,ACK
6.053232000000000,768,208,38,Write,ACK
6.053327200000000,768,208,70,Write,ACK
6.053422300000000,768,208,102,Write,ACK
6.053517500000000,768,208,176,Write,ACK
6.053764100000000,769,208,109,Write,ACK
6.053859300000000,769,208,9,Write,ACK
6.053954500000000,769,208,64,Write,ACK
6.054196000000000,770,208,111,Write,ACK
6.054421300000000,771,209,136,Read,ACK
6.054517400000000,771,209,180,Read,ACK
6.054613600000000,771,209,151,Read,ACK
6.054709800000000,771,209,38,Read,ACK
6.054806000000000,771,209,168,Read,ACK
6.054902100000000,771,209,89,Read,ACK
6.054998300000000,771,209,152,Read,ACK
6.055094500000000,771,209,187,Read,ACK
6.055190700000000,771,209,171,Read,ACK
6.055286900000000,771,209,179,Read,ACK
6.055383000000000,771,209,139,Read,ACK
6.055479200000000,771,209,2,Read,ACK
6.055575400000000,771,209,38,Read,ACK
6.055671600000000,771,209,70,Read,ACK
6.055767800000000,771,209,102,Read,ACK
6.055863900000000,771,209,176,Read,NAK
6.056262900000000,772,208,109,Write,ACK
6.056358100000000,772,208,9,Write,ACK
6.056453300000000,772,208,80,Write,ACK
6.056759800000000,773,208,111,Write,ACK
6.056855000000000,773,208,184,Write,ACK
6.056950200000000,773,208,240,Write,ACK
6.057045300000000,773,208,138,Write,ACK
6.057140500000000,773,208,156,Write,ACK
6.057235700000000,773,208,168,Write,ACK
6.057330900000000,773,208,41,Write,ACK
6.057426100000000,773,208,81,Write,ACK
6.057521200000000,773,208,121,Write,ACK
6.057616400000000,773,208,139,Write,ACK
6.057711600000000,773,208,41,Write,ACK
6.057806800000000,773,208,81,Write,ACK
6.057901900000000,773,208,121,Write,ACK
6.057997100000000,773,208,138,Write,ACK
6.058092300000000,773,208,36,Write,ACK
6.058187400000000,773,208,112,Write,ACK
6.058282500000000,773,208,89,Write,ACK
6.058529100000000,774,208,109,Write,ACK
6.058624300000000,774,208,9,Write,ACK
6.058719400000000,774,208,80,Write,ACK
6.058961000000000,775,208,111,Write,ACK
6.059186200000000,776,209,184,Read,ACK
6.059282300000000,776,209,240,Read,ACK
6.059378400000000,776,209,138,Read,ACK
6.059474600000000,776,209,156,Read,ACK
6.059570800000000,776,209,168,Read,ACK
6.059667000000000,776,209,41,Read,ACK
6.059763200000000,776,209,81,Read,ACK
6.059859300000000,776,209,121,Read,ACK
6.059955500000000,776,209,139,Read,ACK
6.060051700000000,776,209,41,Read,ACK
6.060147900000000,776,209,81,Read,ACK
6.060244100000000,776,209,121,Read,ACK
6.060340200000000,776,209,138,Read,ACK
6.060436400000000,776,209,36,Read,ACK
6.060532600000000,776,209,112,Read,ACK
6.060628700000000,776,209,89,Read,NAK
6.061026800000000,777,208,109,Write,ACK
6.061122000000000,777,208,9,Write,ACK
6.061217100000000,777,208,96,Write,ACK
6.061523500000000,778,208,111,Write,ACK
6.061618700000000,778,208,139,Write,ACK
6.061713900000000,778,208,32,Write,ACK
6.061809000000000,778,208,88,Write,ACK
6.061904200000000,778,208,113,Write,ACK
6.061999400000000,778,208,138,Write,ACK
6.062094600000000,778,208,68,Write,ACK
6.062189800000000,778,208,105,Write,ACK
6.062284900000000,778,208,56,Write,ACK
6.062380100000000,778,208,139,Write,ACK
6.062475300000000,778,208,57,Write,ACK
6.062570500000000,778,208,64,Write,ACK
6.062665600000000,778,208,104,Write,ACK
6.062760800000000,778,208,138,Write,ACK
6.062856000000000,778,208,100,Write,ACK
6.062951200000000,778,208,72,Write,ACK
6.063046400000000,778,208,49,Write,ACK
6.063303000000000,779,208,109,Write,ACK
6.063398100000000,779,208,9,Write,ACK
6.063493300000000,779,208,96,Write,ACK
6.063734900000000,780,208,111,Write,ACK
6.063960200000000,781,209,139,Read,ACK
6.064056300000000,781,209,32,Read,ACK
6.064152500000000,781,209,88,Read,ACK
6.064248600000000,781,209,113,Read,ACK
6.064344800000000,781,209,138,Read,ACK
6.064440900000000,781,209,68,Read,ACK
6.064537000000000,781,209,105,Read,ACK
6.064633200000000,781,209,56,Read,ACK
6.064729400000000,781,209,139,Read,ACK
6.064825600000000,781,209,57,Read,ACK
6.064921800000000,781,209,64,Read,ACK
6.065017900000000,781,209,104,Read,ACK
6.065114100000000,781,209,138,Read,ACK
6.065210300000000,781,209,100,Read,ACK
6.065306500000000,781,209,72,Read,ACK
6.065402600000000,781,209,49,Read,NAK
6.065800700000000,782,208,109,Write,ACK
6.065895900000000,782,208,9,Write,ACK
6.065991000000000,782,208,112,Write,ACK
6.066302500000000,783,208,111,Write,ACK
6.066397700000000,783,208,139,Write,ACK
6.066492800000000,783,208,48,Write,ACK
6.066587900000000,783,208,73,Write,ACK
6.066683100000000,783,208,96,Write,ACK
6.066778300000000,783,208,136,Write,ACK
6.066873500000000,783,208,241,Write,ACK
6.066968600000000,783,208,172,Write,ACK
6.067063800000000,783,208,0,Write,ACK
6.067159000000000,783,208,44,Write,ACK
6.067254200000000,783,208,84,Write,ACK
6.067349400000000,783,208,124,Write,ACK
6.067444500000000,783,208,240,Write,ACK
6.067539700000000,783,208,140,Write,ACK
6.067634900000000,783,208,168,Write,ACK
6.067730100000000,783,208,4,Write,ACK
6.067825300000000,783,208,40,Write,ACK
6.068071900000000,784,208,109,Write,ACK
6.068167000000000,784,208,9,Write,ACK
6.068262200000000,784,208,112,Write,ACK
6.068503800000000,785,208,111,Write,ACK
6.068729100000000,786,209,139,Read,ACK
6.068825200000000,786,209,48,Read,ACK
6.068921400000000,786,209,73,Read,ACK
6.069017600000000,786,209,96,Read,ACK
6.069113800000000,786,209,136,Read,ACK
6.069209900000000,786,209,241,Read,ACK
6.069306100000000,786,209,172,Read,ACK
6.069402200000000,786,209,0,Read,ACK
6.069498400000000,786,209,44,Read,ACK
6.069594500000000,786,209,84,Read,ACK
6.069690700000000,786,209,124,Read,ACK
6.069786800000000,786,209,240,Read,ACK
6.069883000000000,786,209,140,Read,ACK
6.069979200000000,786,209,168,Read,ACK
6.070075400000000,786,209,4,Read,ACK
6.070171500000000,786,209,40,Read,NAK
6.070569600000000,787,208,109,Write,ACK
6.070664800000000,787,208,9,Write,ACK
6.070759900000000,787,208,128,Write,ACK
6.071066500000000,788,208,111,Write,ACK
6.071161600000000,788,208,80,Write,ACK
6.071256800000000,788,208,120,Write,ACK
6.071351900000000,788,208,241,Write,ACK
6.071447100000000,788,208,136,Write,ACK
6.071542200000000,788,208,151,Write,ACK
6.071637400000000,788,208,38,Write,ACK
6.071732500000000,788,208,168,Write,ACK
6.071827700000000,788,208,89,Write,ACK
6.071922900000000,788,208,152,Write,ACK
6.072018100000000,788,208,172,Write,ACK
6.072113300000000,788,208,140,Write,ACK
6.072208400000000,788,208,2,Write,ACK
6.072303600000000,788,208,38,Write,ACK
6.072398800000000,788,208,70,Write,ACK
6.072494000000000,788,208,102,Write,ACK
6.072589100000000,788,208,240,Write,ACK
6.072835800000000,789,208,109,Write,ACK
6.072930900000000,789,208,9,Write,ACK
6.073026100000000,789,208,128,Write,ACK
6.073267600000000,790,208,111,Write,ACK
6.073492900000000,791,209,80,Read,ACK
6.073589000000000,791,209,120,Read,ACK
6.073685100000000,791,209,241,Read,ACK
6.073781300000000,791,209,136,Read,ACK
6.073877500000000,791,209,151,Read,ACK
6.073973700000000,791,209,38,Read,ACK
6.074069800000000,791,209,168,Read,ACK
6.074166000000000,791,209,89,Read,ACK
6.074262200000000,791,209,152,Read,ACK
6.074358400000000,791,209,172,Read,ACK
6.074454500000000,791,209,140,Read,ACK
6.074550700000000,791,209,2,Read,ACK
6.074646900000000,791,209,38,Read,ACK
6.074743100000000,791,209,70,Read,ACK
6.074839300000000,791,209,102,Read,ACK
6.074935400000000,791,209,240,Read,NAK
6.075343400000000,792,208,109,Write,ACK
6.075438600000000,792,208,9,Write,ACK
6.075533800000000,792,208,144,Write,ACK
6.075840300000000,793,208,111,Write,ACK
6.075935500000000,793,208,137,Write,ACK
6.076030700000000,793,208,156,Write,ACK
6.076125800000000,793,208,168,Write,ACK
6.076221000000000,793,208,41,Write,ACK
6.076316100000000,793,208,81,Write,ACK
6.076411300000000,793,208,121,Write,ACK
6.076506500000000,793,208,36,Write,ACK
6.076601700000000,793,208,112,Write,ACK
6.076696800000000,793,208,89,Write,ACK
6.076791900000000,793,208,68,Write,ACK
6.076887100000000,793,208,105,Write,ACK
6.076982300000000,793,208,56,Write,ACK
6.077077400000000,793,208,100,Write,ACK
6.077172600000000,793,208,72,Write,ACK
6.077267800000000,793,208,49,Write,ACK
6.077363000000000,793,208,169,Write,ACK
6.077609600000000,794,208,109,Write,ACK
6.077704800000000,794,208,9,Write,ACK
6.077799900000000,794,208,144,Write,ACK
6.078041500000000,795,208,111,Write,ACK
6.078266700000000,796,209,137,Read,ACK
6.078362900000000,796,209,156,Read,ACK
6.078459100000000,796,209,168,Read,ACK
6.078555200000000,796,209,41,Read,ACK
6.078651400000000,796,209,81,Read,ACK
6.078747500000000,796,209,121,Read,ACK
6.078843700000000,796,209,36,Read,ACK
6.078939800000000,796,209,112,Read,ACK
6.079036000000000,796,209,89,Read,ACK
6.079132200000000,796,209,68,Read,ACK
6.079228400000000,796,209,105,Read,ACK
6.079324600000000,796,209,56,Read,ACK
6.079420700000000,796,209,100,Read,ACK
6.079516900000000,796,209,72,Read,ACK
6.079613100000000,796,209,49,Read,ACK
6.079709200000000,796,209,169,Read,NAK
6.080107300000000,797,208,109,Write,ACK
6.080202400000000,797,208,9,Write,ACK
6.080297600000000,797,208,160,Write,ACK
6.080604100000000,798,208,111,Write,ACK
6.080699300000000,798,208,136,Write,ACK
6.080794400000000,798,208,9,Write,ACK
6.080889500000000,798,208,32,Write,ACK
6.080984700000000,798,208,89,Write,ACK
6.081079900000000,798,208,112,Write,ACK
6.081175100000000,798,208,171,Write,ACK
6.081270300000000,798,208,17,Write,ACK
6.081365400000000,798,208,56,Write,ACK
6.081460600000000,798,208,64,Write,ACK
6.081555800000000,798,208,105,Write,ACK
6.081651000000000,798,208,168,Write,ACK
6.081746100000000,798,208,25,Write,ACK
6.081841300000000,798,208,49,Write,ACK
6.081936500000000,798,208,72,Write,ACK
6.082031700000000,798,208,96,Write,ACK
6.082126900000000,798,208,140,Write,ACK
6.082373500000000,799,208,109,Write,ACK
6.082468600000000,799,208,9,Write,ACK
6.082563800000000,799,208,160,Write,ACK
6.082805400000000,800,208,111,Write,ACK
6.083030700000000,801,209,136,Read,ACK
6.083126800000000,801,209,9,Read,ACK
6.083223000000000,801,209,32,Read,ACK
6.083319100000000,801,209,89,Read,ACK
6.083415300000000,801,209,112,Read,ACK
6.083511500000000,801,209,171,Read,ACK
6.083607700000000,801,209,17,Read,ACK
6.083703900000000,801,209,56,Read,ACK
6.083800000000000,801,209,64,Read,ACK
6.083896100000000,801,209,105,Read,ACK
6.083992300000000,801,209,168,Read,ACK
6.084088400000000,801,209,25,Read,ACK
6.084184600000000,801,209,49,Read,ACK
6.084280800000000,801,209,72,Read,ACK
6.084377000000000,801,209,96,Read,ACK
6.084473100000000,801,209,140,Read,NAK
6.084871200000000,802,208,109,Write,ACK
6.084966400000000,802,208,9,Write,ACK
6.085061500000000,802,208,176,Write,ACK
6.085373000000000,803,208,111,Write,ACK
6.085468200000000,803,208,168,Write,ACK
6.085563400000000,803,208,60,Write,ACK
6.085658600000000,803,208,65,Write,ACK
6.085753700000000,803,208,92,Write,ACK
6.085848900000000,803,208,32,Write,ACK
6.085944000000000,803,208,124,Write,ACK
6.086039100000000,803,208,0,Write,ACK
6.086134300000000,803,208,241,Write,ACK
6.086229500000000,803,208,135,Write,ACK
6.086324700000000,803,208,152,Write,ACK
6.086419900000000,803,208,25,Write,ACK
6.086515000000000,803,208,134,Write,ACK
6.086610200000000,803,208,168,Write,ACK
6.086705400000000,803,208,110,Write,ACK
6.086800600000000,803,208,118,Write,ACK
6.086895800000000,803,208,126,Write,ACK
6.087142400000000,804,208,109,Write,ACK
6.087237500000000,804,208,9,Write,ACK
6.087332700000000,804,208,176,Write,ACK
6.087574200000000,805,208,111,Write,ACK
6.087799500000000,806,209,168,Read,ACK
6.087895700000000,806,209,60,Read,ACK
6.087991800000000,806,209,65,Read,ACK
6.088087900000000,806,209,92,Read,ACK
6.088184200000000,806,209,32,Read,ACK
6.088280400000000,806,209,124,Read,ACK
6.088376600000000,806,209,0,Read,ACK
6.088472700000000,806,209,241,Read,ACK
6.088568900000000,806,209,135,Read,ACK
6.088665100000000,806,209,152,Read,ACK
6.088761300000000,806,209,25,Read,ACK
6.088857500000000,806,209,134,Read,ACK
6.088953600000000,806,209,168,Read,ACK
6.089049700000000,806,209,110,Read,ACK
6.089145900000000,806,209,118,Read,ACK
6.089242000000000,806,209,126,Read,NAK
6.089640000000000,807,208,109,Write,ACK
6.089735200000000,807,208,9,Write,ACK
6.089830400000000,807,208,192,Write,ACK
6.090142000000000,808,208,111,Write,ACK
6.090237100000000,808,208,169,Write,ACK
6.090332300000000,808,208,153,Write,ACK
6.090427400000000,808,208,136,Write,ACK
6.090522600000000,808,208,45,Write,ACK
6.090617800000000,808,208,85,Write,ACK
6.090713000000000,808,208,125,Write,ACK
6.090808200000000,808,208,216,Write,ACK
6.090903300000000,808,208,177,Write,ACK
6.090998500000000,808,208,181,Write,ACK
6.091093600000000,808,208,185,Write,ACK
6.091188800000000,808,208,163,Write,ACK
6.091283900000000,808,208,223,Write,ACK
6.091379100000000,808,208,223,Write,ACK
6.091474300000000,808,208,223,Write,ACK
6.091569500000000,808,208,174,Write,ACK
6.091664600000000,808,208,208,Write,ACK
6.091911300000000,809,208,109,Write,ACK
6.092006400000000,809,208,9,Write,ACK
6.092101600000000,809,208,192,Write,ACK
6.092343100000000,810,208,111,Write,ACK
6.092568400000000,811,209,169,Read,ACK
6.092664600000000,811,209,153,Read,ACK
6.092760700000000,811,209,136,Read,ACK
6.092856900000000,811,209,45,Read,ACK
6.092953100000000,811,209,85,Read,ACK
6.093049200000000,811,209,125,Read,ACK
6.093145300000000,811,209,216,Read,ACK
6.093241500000000,811,209,177,Read,ACK
6.093337700000000,811,209,181,Read,ACK
6.093433900000000,811,209,185,Read,ACK
6.093530000000000,811,209,163,Read,ACK
6.093626200000000,811,209,223,Read,ACK
6.093722400000000,811,209,223,Read,ACK
6.093818600000000,811,209,223,Read,ACK
6.093914800000000,811,209,174,Read,ACK
6.094010900000000,811,209,208,Read,NAK
6.094418900000000,812,208,109,Write,ACK
6.094514100000000,812,208,9,Write,ACK
6.094609300000000,812,208,208,Write,ACK
6.094915800000000,813,208,111,Write,ACK
6.095011000000000,813,208,223,Write,ACK
6.095106100000000,813,208,170,Write,ACK
6.095201200000000,813,208,208,Write,ACK
6.095296400000000,813,208,222,Write,ACK
6.095391600000000,813,208,242,Write,ACK
6.095486700000000,813,208,171,Write,ACK
6.095581900000000,813,208,248,Write,ACK
6.095677100000000,813,208,249,Write,ACK
6.095772300000000,813,208,217,Write,ACK
6.095867500000000,813,208,176,Write,ACK
6.095962600000000,813,208,135,Write,ACK
6.096057800000000,813,208,196,Write,ACK
6.096153000000000,813,208,170,Write,ACK
6.096248200000000,813,208,241,Write,ACK
6.096343400000000,813,208,223,Write,ACK
6.096438500000000,813,208,223,Write,ACK
6.096685100000000,814,208,109,Write,ACK
6.096780300000000,814,208,9,Write,ACK
6.096875500000000,814,208,208,Write,ACK
6.097117000000000,815,208,111,Write,ACK
6.097342300000000,816,209,223,Read,ACK
6.097438400000000,816,209,170,Read,ACK
6.097534600000000,816,209,208,Read,ACK
6.097630800000000,816,209,222,Read,ACK
6.097727000000000,816,209,242,Read,ACK
6.097823200000000,816,209,171,Read,ACK
6.097919300000000,816,209,248,Read,ACK
6.098015500000000,816,209,249,Read,ACK
6.098111700000000,816,209,217,Read,ACK
6.098207900000000,816,209,176,Read,ACK
6.098304100000000,816,209,135,Read,ACK
6.098400200000000,816,209,196,Read,ACK
6.098496400000000,816,209,170,Read,ACK
6.098592600000000,816,209,241,Read,ACK
6.098688800000000,816,209,223,Read,ACK
6.098784900000000,816,209,223,Read,NAK
6.099185600000000,817,208,109,Write,ACK
6.099280800000000,817,208,9,Write,ACK
6.099376000000000,817,208,224,Write,ACK
6.099682500000000,818,208,111,Write,ACK
6.099777700000000,818,208,187,Write,ACK
6.099872900000000,818,208,175,Write,ACK
6.099968000000000,818,208,223,Write,ACK
6.100063200000000,818,208,223,Write,ACK
6.100158400000000,818,208,185,Write,ACK
6.100253600000000,818,208,216,Write,ACK
6.100348800000000,818,208,177,Write,ACK
6.100443900000000,818,208,241,Write,ACK
6.100539100000000,818,208,163,Write,ACK
6.100634300000000,818,208,151,Write,ACK
6.100729500000000,818,208,142,Write,ACK
6.100824700000000,818,208,96,Write,ACK
6.100919800000000,818,208,223,Write,ACK
6.101015000000000,818,208,176,Write,ACK
6.101110200000000,818,208,132,Write,ACK
6.101205400000000,818,208,242,Write,ACK
6.101452000000000,819,208,109,Write,ACK
6.101547100000000,819,208,9,Write,ACK
6.101642300000000,819,208,224,Write,ACK
6.101883900000000,820,208,111,Write,ACK
6.102109200000000,821,209,187,Read,ACK
6.102205300000000,821,209,175,Read,ACK
6.102301400000000,821,209,223,Read,ACK
6.102397500000000,821,209,223,Read,ACK
6.102493700000000,821,209,185,Read,ACK
6.102589900000000,821,209,216,Read,ACK
6.102686000000000,821,209,177,Read,ACK
6.102782200000000,821,209,241,Read,ACK
6.102878400000000,821,209,163,Read,ACK
6.102974600000000,821,209,151,Read,ACK
6.103070800000000,821,209,142,Read,ACK
6.103166900000000,821,209,96,Read,ACK
6.103267400000000,821,209,223,Read,ACK
6.103363600000000,821,209,176,Read,ACK
6.103459700000000,821,209,132,Read,ACK
6.103555800000000,821,209,242,Read,NAK
6.103953900000000,822,208,109,Write,ACK
6.104049100000000,822,208,9,Write,ACK
6.104144200000000,822,208,240,Write,ACK
6.104455800000000,823,208,111,Write,ACK
6.104550900000000,823,208,200,Write,ACK
6.104646100000000,823,208,248,Write,ACK
6.104741300000000,823,208,249,Write,ACK
6.104836500000000,823,208,217,Write,ACK
6.104931700000000,823,208,222,Write,ACK
6.105026800000000,823,208,216,Write,ACK
6.105122000000000,823,208,147,Write,ACK
6.105217200000000,823,208,133,Write,ACK
6.105314300000000,823,208,241,Write,ACK
6.105409400000000,823,208,74,Write,ACK
6.105504600000000,823,208,177,Write,ACK
6.105599800000000,823,208,131,Write,ACK
6.105695000000000,823,208,163,Write,ACK
6.105790100000000,823,208,8,Write,ACK
6.105885300000000,823,208,181,Write,ACK
6.105980500000000,823,208,131,Write,ACK
6.106227100000000,824,208,109,Write,ACK
6.106322300000000,824,208,9,Write,ACK
6.106417500000000,824,208,240,Write,ACK
6.106659000000000,825,208,111,Write,ACK
6.106884300000000,826,209,200,Read,ACK
6.106980500000000,826,209,248,Read,ACK
6.107076700000000,826,209,249,Read,ACK
6.107172800000000,826,209,217,Read,ACK
6.107269000000000,826,209,222,Read,ACK
6.107365100000000,826,209,216,Read,ACK
6.107461200000000,826,209,147,Read,ACK
6.107557400000000,826,209,133,Read,ACK
6.107653500000000,826,209,241,Read,ACK
6.107749700000000,826,209,74,Read,ACK
6.107845900000000,826,209,177,Read,ACK
6.107942100000000,826,209,131,Read,ACK
6.108038300000000,826,209,163,Read,ACK
6.108134400000000,826,209,8,Read,ACK
6.108230600000000,826,209,181,Read,ACK
6.108326700000000,826,209,131,Read,NAK
6.108724800000000,827,208,109,Write,ACK
6.108820000000000,827,208,10,Write,ACK
6.108915200000000,827,208,0,Write,ACK
6.109221700000000,828,208,111,Write,ACK
6.109316800000000,828,208,154,Write,ACK
6.109412000000000,828,208,8,Write,ACK
6.109507100000000,828,208,16,Write,ACK
6.109602200000000,828,208,183,Write,ACK
6.109697400000000,828,208,159,Write,ACK
6.109792600000000,828,208,16,Write,ACK
6.109887800000000,828,208,216,Write,ACK
6.109983000000000,828,208,241,Write,ACK
6.110078100000000,828,208,176,Write,ACK
6.110173300000000,828,208,186,Write,ACK
6.110268500000000,828,208,174,Write,ACK
6.110363700000000,828,208,176,Write,ACK
6.110458900000000,828,208,138,Write,ACK
6.110554000000000,828,208,194,Write,ACK
6.110649200000000,828,208,178,Write,ACK
6.110744400000000,828,208,182,Write,ACK
6.110991000000000,829,208,109,Write,ACK
6.111086200000000,829,208,10,Write,ACK
6.111186200000000,829,208,0,Write,ACK
6.111427700000000,830,208,111,Write,ACK
6.111653000000000,831,209,154,Read,ACK
6.111749200000000,831,209,8,Read,ACK
6.111845400000000,831,209,16,Read,ACK
6.111941500000000,831,209,183,Read,ACK
6.112037700000000,831,209,159,Read,ACK
6.112133900000000,831,209,16,Read,ACK
6.112230100000000,831,209,216,Read,ACK
6.112326300000000,831,209,241,Read,ACK
6.112422400000000,831,209,176,Read,ACK
6.112518600000000,831,209,186,Read,ACK
6.112614800000000,831,209,174,Read,ACK
6.112711000000000,831,209,176,Read,ACK
6.112807200000000,831,209,138,Read,ACK
6.112903300000000,831,209,194,Read,ACK
6.112999500000000,831,209,178,Read,ACK
6.113095600000000,831,209,182,Read,NAK
6.113493700000000,832,208,109,Write,ACK
6.113588800000000,832,208,10,Write,ACK
6.113683900000000,832,208,16,Write,ACK
6.113990400000000,833,208,111,Write,ACK
6.114085600000000,833,208,142,Write,ACK
6.114186700000000,833,208,158,Write,ACK
6.114281900000000,833,208,241,Write,ACK
6.114377100000000,833,208,251,Write,ACK
6.114472300000000,833,208,217,Write,ACK
6.114567400000000,833,208,244,Write,ACK
6.114662600000000,833,208,29,Write,ACK
6.114757800000000,833,208,216,Write,ACK
6.114853000000000,833,208,249,Write,ACK
6.114948200000000,833,208,217,Write,ACK
6.115043300000000,833,208,12,Write,ACK
6.115138500000000,833,208,241,Write,ACK
6.115233700000000,833,208,216,Write,ACK
6.115328900000000,833,208,248,Write,ACK
6.115424000000000,833,208,248,Write,ACK
6.115519200000000,833,208,173,Write,ACK
6.115765800000000,834,208,109,Write,ACK
6.115861000000000,834,208,10,Write,ACK
6.115956200000000,834,208,16,Write,ACK
6.116197700000000,835,208,111,Write,ACK
6.116423000000000,836,209,142,Read,ACK
6.116519100000000,836,209,158,Read,ACK
6.116615300000000,836,209,241,Read,ACK
6.116711400000000,836,209,251,Read,ACK
6.116807500000000,836,209,217,Read,ACK
6.116903700000000,836,209,244,Read,ACK
6.116999900000000,836,209,29,Read,ACK
6.117096100000000,836,209,216,Read,ACK
6.117192300000000,836,209,249,Read,ACK
6.117288400000000,836,209,217,Read,ACK
6.117384600000000,836,209,12,Read,ACK
6.117480800000000,836,209,241,Read,ACK
6.117577000000000,836,209,216,Read,ACK
6.117673100000000,836,209,248,Read,ACK
6.117769300000000,836,209,248,Read,ACK
6.117865400000000,836,209,173,Read,NAK
6.118263400000000,837,208,109,Write,ACK
6.118358600000000,837,208,10,Write,ACK
6.118453800000000,837,208,32,Write,ACK
6.118765400000000,838,208,111,Write,ACK
6.118860600000000,838,208,97,Write,ACK
6.118955700000000,838,208,217,Write,ACK
6.119050900000000,838,208,174,Write,ACK
6.119146100000000,838,208,251,Write,ACK
6.119241200000000,838,208,216,Write,ACK
6.119336400000000,838,208,244,Write,ACK
6.119431600000000,838,208,12,Write,ACK
6.119526700000000,838,208,241,Write,ACK
6.119621900000000,838,208,216,Write,ACK
6.119717000000000,838,208,248,Write,ACK
6.119812200000000,838,208,248,Write,ACK
6.119907300000000,838,208,173,Write,ACK
6.120002500000000,838,208,25,Write,ACK
6.120097700000000,838,208,217,Write,ACK
6.120192900000000,838,208,174,Write,ACK
6.120288100000000,838,208,251,Write,ACK
6.120534700000000,839,208,109,Write,ACK
6.120629800000000,839,208,10,Write,ACK
6.120725000000000,839,208,32,Write,ACK
6.120966600000000,840,208,111,Write,ACK
6.121191800000000,841,209,97,Read,ACK
6.121288000000000,841,209,217,Read,ACK
6.121384100000000,841,209,174,Read,ACK
6.121480300000000,841,209,251,Read,ACK
6.121576500000000,841,209,216,Read,ACK
6.121672700000000,841,209,244,Read,ACK
6.121768800000000,841,209,12,Read,ACK
6.121864900000000,841,209,241,Read,ACK
6.121961100000000,841,209,216,Read,ACK
6.122057300000000,841,209,248,Read,ACK
6.122153500000000,841,209,248,Read,ACK
6.122249600000000,841,209,173,Read,ACK
6.122345800000000,841,209,25,Read,ACK
6.122442000000000,841,209,217,Read,ACK
6.122538200000000,841,209,174,Read,ACK
6.122634300000000,841,209,251,Read,NAK
6.123032400000000,842,208,109,Write,ACK
6.123127600000000,842,208,10,Write,ACK
6.123222700000000,842,208,48,Write,ACK
6.123529200000000,843,208,111,Write,ACK
6.123624400000000,843,208,223,Write,ACK
6.123719600000000,843,208,216,Write,ACK
6.123814700000000,843,208,244,Write,ACK
6.123909800000000,843,208,22,Write,ACK
6.124005000000000,843,208,241,Write,ACK
6.124100200000000,843,208,216,Write,ACK
6.124195300000000,843,208,248,Write,ACK
6.124290500000000,843,208,173,Write,ACK
6.124385700000000,843,208,141,Write,ACK
6.124480900000000,843,208,97,Write,ACK
6.124576100000000,843,208,217,Write,ACK
6.124671200000000,843,208,244,Write,ACK
6.124768500000000,843,208,244,Write,ACK
6.124863600000000,843,208,172,Write,ACK
6.124958800000000,843,208,245,Write,ACK
6.125054000000000,843,208,156,Write,ACK
6.125310500000000,844,208,109,Write,ACK
6.125405700000000,844,208,10,Write,ACK
6.125500900000000,844,208,48,Write,ACK
6.125742400000000,845,208,111,Write,ACK
6.125967700000000,846,209,223,Read,ACK
6.126063900000000,846,209,216,Read,ACK
6.126160100000000,846,209,244,Read,ACK
6.126256300000000,846,209,22,Read,ACK
6.126352500000000,846,209,241,Read,ACK
6.126448600000000,846,209,216,Read,ACK
6.126544800000000,846,209,248,Read,ACK
6.126641000000000,846,209,173,Read,ACK
6.126737200000000,846,209,141,Read,ACK
6.126833400000000,846,209,97,Read,ACK
6.126929500000000,846,209,217,Read,ACK
6.127025700000000,846,209,244,Read,ACK
6.127121900000000,846,209,244,Read,ACK
6.127218100000000,846,209,172,Read,ACK
6.127314200000000,846,209,245,Read,ACK
6.127410400000000,846,209,156,Read,NAK
6.127808400000000,847,208,109,Write,ACK
6.127903500000000,847,208,10,Write,ACK
6.127998600000000,847,208,64,Write,ACK
6.128310200000000,848,208,111,Write,ACK
6.128405300000000,848,208,156,Write,ACK
6.128500500000000,848,208,141,Write,ACK
6.128595700000000,848,208,223,Write,ACK
6.128690900000000,848,208,43,Write,ACK
6.128786100000000,848,208,186,Write,ACK
6.128881200000000,848,208,182,Write,ACK
6.128976400000000,848,208,174,Write,ACK
6.129071600000000,848,208,250,Write,ACK
6.129166800000000,848,208,248,Write,ACK
6.129261900000000,848,208,244,Write,ACK
6.129357100000000,848,208,11,Write,ACK
6.129452300000000,848,208,216,Write,ACK
6.129547500000000,848,208,241,Write,ACK
6.129642700000000,848,208,174,Write,ACK
6.129737800000000,848,208,208,Write,ACK
6.129833000000000,848,208,248,Write,ACK
6.130079600000000,849,208,109,Write,ACK
6.130174800000000,849,208,10,Write,ACK
6.130270000000000,849,208,64,Write,ACK
6.130511500000000,850,208,111,Write,ACK
6.130736800000000,851,209,156,Read,ACK
6.130832900000000,851,209,141,Read,ACK
6.130929100000000,851,209,223,Read,ACK
6.131025200000000,851,209,43,Read,ACK
6.131121300000000,851,209,186,Read,ACK
6.131217500000000,851,209,182,Read,ACK
6.131313700000000,851,209,174,Read,ACK
6.131409900000000,851,209,250,Read,ACK
6.131506100000000,851,209,248,Read,ACK
6.131602200000000,851,209,244,Read,ACK
6.131698400000000,851,209,11,Read,ACK
6.131794600000000,851,209,216,Read,ACK
6.131890800000000,851,209,241,Read,ACK
6.131987000000000,851,209,174,Read,ACK
6.132083100000000,851,209,208,Read,ACK
6.132179300000000,851,209,248,Read,NAK
6.132577300000000,852,208,109,Write,ACK
6.132672500000000,852,208,10,Write,ACK
6.132767600000000,852,208,80,Write,ACK
6.133079200000000,853,208,111,Write,ACK
6.133174400000000,853,208,173,Write,ACK
6.133269500000000,853,208,81,Write,ACK
6.133364700000000,853,208,218,Write,ACK
6.133459900000000,853,208,174,Write,ACK
6.133555100000000,853,208,250,Write,ACK
6.133650200000000,853,208,248,Write,ACK
6.133745400000000,853,208,241,Write,ACK
6.133840600000000,853,208,216,Write,ACK
6.133935800000000,853,208,185,Write,ACK
6.134030900000000,853,208,177,Write,ACK
6.134126000000000,853,208,182,Write,ACK
6.134221200000000,853,208,163,Write,ACK
6.134316400000000,853,208,131,Write,ACK
6.134411600000000,853,208,156,Write,ACK
6.134506700000000,853,208,8,Write,ACK
6.134601900000000,853,208,185,Write,ACK
6.134848500000000,854,208,109,Write,ACK
6.134943700000000,854,208,10,Write,ACK
6.135038900000000,854,208,80,Write,ACK
6.135285900000000,855,208,111,Write,ACK
6.135511100000000,856,209,173,Read,ACK
6.135607300000000,856,209,81,Read,ACK
6.135703500000000,856,209,218,Read,ACK
6.135799700000000,856,209,174,Read,ACK
6.135895900000000,856,209,250,Read,ACK
6.135992000000000,856,209,248,Read,ACK
6.136088200000000,856,209,241,Read,ACK
6.136190600000000,856,209,216,Read,ACK
6.136286800000000,856,209,185,Read,ACK
6.136383000000000,856,209,177,Read,ACK
6.136479200000000,856,209,182,Read,ACK
6.136575400000000,856,209,163,Read,ACK
6.136671500000000,856,209,131,Read,ACK
6.136767700000000,856,209,156,Read,ACK
6.136863900000000,856,209,8,Read,ACK
6.136960000000000,856,209,185,Read,NAK
6.137368400000000,857,208,109,Write,ACK
6.137463500000000,857,208,10,Write,ACK
6.137558700000000,857,208,96,Write,ACK
6.137865300000000,858,208,111,Write,ACK
6.137960400000000,858,208,177,Write,ACK
6.138055600000000,858,208,131,Write,ACK
6.138150700000000,858,208,154,Write,ACK
6.138245800000000,858,208,181,Write,ACK
6.138341000000000,858,208,170,Write,ACK
6.138436200000000,858,208,192,Write,ACK
6.138531400000000,858,208,253,Write,ACK
6.138626600000000,858,208,48,Write,ACK
6.138721700000000,858,208,131,Write,ACK
6.138816900000000,858,208,183,Write,ACK
6.138912100000000,858,208,159,Write,ACK
6.139007300000000,858,208,16,Write,ACK
6.139103100000000,858,208,181,Write,ACK
6.139198300000000,858,208,139,Write,ACK
6.139293400000000,858,208,147,Write,ACK
6.139388600000000,858,208,242,Write,ACK
6.139635200000000,859,208,109,Write,ACK
6.139730400000000,859,208,10,Write,ACK
6.139825600000000,859,208,96,Write,ACK
6.140067100000000,860,208,111,Write,ACK
6.140297300000000,861,209,177,Read,ACK
6.140393500000000,861,209,131,Read,ACK
6.140489700000000,861,209,154,Read,ACK
6.140585900000000,861,209,181,Read,ACK
6.140682100000000,861,209,170,Read,ACK
6.140778200000000,861,209,192,Read,ACK
6.140874400000000,861,209,253,Read,ACK
6.140970600000000,861,209,48,Read,ACK
6.141066800000000,861,209,131,Read,ACK
6.141162900000000,861,209,183,Read,ACK
6.141259000000000,861,209,159,Read,ACK
6.141355200000000,861,209,16,Read,ACK
6.141451400000000,861,209,181,Read,ACK
6.141547500000000,861,209,139,Read,ACK
6.141643700000000,861,209,147,Read,ACK
6.141739800000000,861,209,242,Read,NAK
6.142137900000000,862,208,109,Write,ACK
6.142233100000000,862,208,10,Write,ACK
6.142328200000000,862,208,112,Write,ACK
6.142634800000000,863,208,111,Write,ACK
6.142729900000000,863,208,2,Write,ACK
6.142825100000000,863,208,2,Write,ACK
6.142920300000000,863,208,209,Write,ACK
6.143015500000000,863,208,171,Write,ACK
6.143110700000000,863,208,218,Write,ACK
6.143205800000000,863,208,222,Write,ACK
6.143301000000000,863,208,216,Write,ACK
6.143396200000000,863,208,241,Write,ACK
6.143491400000000,863,208,176,Write,ACK
6.143586600000000,863,208,128,Write,ACK
6.143681700000000,863,208,186,Write,ACK
6.143776900000000,863,208,171,Write,ACK
6.143872100000000,863,208,192,Write,ACK
6.143967300000000,863,208,195,Write,ACK
6.144062500000000,863,208,178,Write,ACK
6.144157600000000,863,208,132,Write,ACK
6.144404200000000,864,208,109,Write,ACK
6.144499400000000,864,208,10,Write,ACK
6.144594600000000,864,208,112,Write,ACK
6.144836100000000,865,208,111,Write,ACK
6.145061400000000,866,209,2,Read,ACK
6.145157600000000,866,209,2,Read,ACK
6.145253800000000,866,209,209,Read,ACK
6.145350000000000,866,209,171,Read,ACK
6.145446100000000,866,209,218,Read,ACK
6.145542300000000,866,209,222,Read,ACK
6.145638500000000,866,209,216,Read,ACK
6.145734700000000,866,209,241,Read,ACK
6.145830900000000,866,209,176,Read,ACK
6.145927000000000,866,209,128,Read,ACK
6.146023200000000,866,209,186,Read,ACK
6.146119400000000,866,209,171,Read,ACK
6.146215500000000,866,209,192,Read,ACK
6.146311600000000,866,209,195,Read,ACK
6.146407700000000,866,209,178,Read,ACK
6.146503900000000,866,209,132,Read,NAK
6.146902000000000,867,208,109,Write,ACK
6.146997100000000,867,208,10,Write,ACK
6.147092300000000,867,208,128,Write,ACK
6.147407600000000,868,208,111,Write,ACK
6.147502800000000,868,208,193,Write,ACK
6.147598000000000,868,208,195,Write,ACK
6.147693100000000,868,208,216,Write,ACK
6.147788300000000,868,208,177,Write,ACK
6.147883500000000,868,208,185,Write,ACK
6.147978700000000,868,208,243,Write,ACK
6.148073800000000,868,208,139,Write,ACK
6.148169000000000,868,208,163,Write,ACK
6.148264100000000,868,208,145,Write,ACK
6.148359300000000,868,208,182,Write,ACK
6.148454400000000,868,208,9,Write,ACK
6.148549600000000,868,208,180,Write,ACK
6.148644700000000,868,208,217,Write,ACK
6.148739900000000,868,208,171,Write,ACK
6.148835100000000,868,208,222,Write,ACK
6.148930300000000,868,208,176,Write,ACK
6.149176900000000,869,208,109,Write,ACK
6.149272100000000,869,208,10,Write,ACK
6.149367200000000,869,208,128,Write,ACK
6.149608800000000,870,208,111,Write,ACK
6.149834100000000,871,209,193,Read,ACK
6.149930200000000,871,209,195,Read,ACK
6.150026400000000,871,209,216,Read,ACK
6.150122600000000,871,209,177,Read,ACK
6.150218700000000,871,209,185,Read,ACK
6.150314900000000,871,209,243,Read,ACK
6.150411000000000,871,209,139,Read,ACK
6.150507100000000,871,209,163,Read,ACK
6.150603300000000,871,209,145,Read,ACK
6.150699500000000,871,209,182,Read,ACK
6.150795700000000,871,209,9,Read,ACK
6.150891800000000,871,209,180,Read,ACK
6.150988000000000,871,209,217,Read,ACK
6.151084200000000,871,209,171,Read,ACK
6.151180400000000,871,209,222,Read,ACK
6.151276500000000,871,209,176,Read,NAK
6.151679600000000,872,208,109,Write,ACK
6.151774800000000,872,208,10,Write,ACK
6.151869900000000,872,208,144,Write,ACK
6.152176500000000,873,208,111,Write,ACK
6.152271600000000,873,208,135,Write,ACK
6.152366800000000,873,208,156,Write,ACK
6.152461900000000,873,208,185,Write,ACK
6.152557000000000,873,208,163,Write,ACK
6.152652200000000,873,208,221,Write,ACK
6.152747400000000,873,208,241,Write,ACK
6.152842600000000,873,208,179,Write,ACK
6.152937700000000,873,208,139,Write,ACK
6.153032900000000,873,208,139,Write,ACK
6.153128100000000,873,208,139,Write,ACK
6.153223300000000,873,208,139,Write,ACK
6.153318400000000,873,208,139,Write,ACK
6.153413600000000,873,208,176,Write,ACK
6.153508800000000,873,208,135,Write,ACK
6.153604000000000,873,208,163,Write,ACK
6.153699200000000,873,208,163,Write,ACK
6.153945800000000,874,208,109,Write,ACK
6.154040900000000,874,208,10,Write,ACK
6.154136100000000,874,208,144,Write,ACK
6.154377600000000,875,208,111,Write,ACK
6.154602800000000,876,209,135,Read,ACK
6.154698900000000,876,209,156,Read,ACK
6.154795100000000,876,209,185,Read,ACK
6.154891300000000,876,209,163,Read,ACK
6.154987500000000,876,209,221,Read,ACK
6.155083700000000,876,209,241,Read,ACK
6.155179800000000,876,209,179,Read,ACK
6.155276000000000,876,209,139,Read,ACK
6.155372200000000,876,209,139,Read,ACK
6.155468400000000,876,209,139,Read,ACK
6.155564600000000,876,209,139,Read,ACK
6.155660700000000,876,209,139,Read,ACK
6.155756900000000,876,209,176,Read,ACK
6.155853100000000,876,209,135,Read,ACK
6.155949300000000,876,209,163,Read,ACK
6.156045400000000,876,209,163,Read,NAK
6.156453400000000,877,208,109,Write,ACK
6.156548500000000,877,208,10,Write,ACK
6.156643700000000,877,208,160,Write,ACK
6.156950200000000,878,208,111,Write,ACK
6.157045400000000,878,208,163,Write,ACK
6.157140500000000,878,208,163,Write,ACK
6.157235700000000,878,208,178,Write,ACK
6.157330900000000,878,208,139,Write,ACK
6.157426100000000,878,208,182,Write,ACK
6.157521300000000,878,208,155,Write,ACK
6.157616400000000,878,208,242,Write,ACK
6.157711600000000,878,208,163,Write,ACK
6.157806800000000,878,208,163,Write,ACK
6.157902000000000,878,208,163,Write,ACK
6.157997200000000,878,208,163,Write,ACK
6.158092300000000,878,208,163,Write,ACK
6.158192600000000,878,208,163,Write,ACK
6.158287800000000,878,208,163,Write,ACK
6.158383000000000,878,208,163,Write,ACK
6.158478200000000,878,208,163,Write,ACK
6.158724700000000,879,208,109,Write,ACK
6.158819800000000,879,208,10,Write,ACK
6.158915000000000,879,208,160,Write,ACK
6.159156600000000,880,208,111,Write,ACK
6.159381800000000,881,209,163,Read,ACK
6.159478000000000,881,209,163,Read,ACK
6.159574100000000,881,209,178,Read,ACK
6.159670300000000,881,209,139,Read,ACK
6.159766400000000,881,209,182,Read,ACK
6.159862600000000,881,209,155,Read,ACK
6.159958700000000,881,209,242,Read,ACK
6.160054900000000,881,209,163,Read,ACK
6.160151100000000,881,209,163,Read,ACK
6.160247300000000,881,209,163,Read,ACK
6.160343500000000,881,209,163,Read,ACK
6.160439600000000,881,209,163,Read,ACK
6.160535800000000,881,209,163,Read,ACK
6.160631900000000,881,209,163,Read,ACK
6.160728100000000,881,209,163,Read,ACK
6.160824200000000,881,209,163,Read,NAK
6.161222200000000,882,208,109,Write,ACK
6.161317400000000,882,208,10,Write,ACK
6.161412600000000,882,208,176,Write,ACK
6.161719100000000,883,208,111,Write,ACK
6.161814200000000,883,208,163,Write,ACK
6.161909400000000,883,208,241,Write,ACK
6.162004600000000,883,208,176,Write,ACK
6.162099700000000,883,208,135,Write,ACK
6.162194900000000,883,208,181,Write,ACK
6.162290100000000,883,208,154,Write,ACK
6.162385300000000,883,208,163,Write,ACK
6.162480400000000,883,208,243,Write,ACK
6.162575600000000,883,208,155,Write,ACK
6.162670800000000,883,208,163,Write,ACK
6.162766000000000,883,208,163,Write,ACK
6.162861200000000,883,208,220,Write,ACK
6.162956300000000,883,208,186,Write,ACK
6.163051500000000,883,208,172,Write,ACK
6.163146700000000,883,208,223,Write,ACK
6.163241900000000,883,208,185,Write,ACK
6.163488500000000,884,208,109,Write,ACK
6.163583700000000,884,208,10,Write,ACK
6.163678800000000,884,208,176,Write,ACK
6.163920400000000,885,208,111,Write,ACK
6.164145700000000,886,209,163,Read,ACK
6.164241800000000,886,209,241,Read,ACK
6.164338000000000,886,209,176,Read,ACK
6.164434200000000,886,209,135,Read,ACK
6.164530300000000,886,209,181,Read,ACK
6.164626500000000,886,209,154,Read,ACK
6.164722600000000,886,209,163,Read,ACK
6.164818700000000,886,209,243,Read,ACK
6.164914900000000,886,209,155,Read,ACK
6.165011100000000,886,209,163,Read,ACK
6.165107300000000,886,209,163,Read,ACK
6.165203500000000,886,209,220,Read,ACK
6.165299600000000,886,209,186,Read,ACK
6.165395800000000,886,209,172,Read,ACK
6.165492000000000,886,209,223,Read,ACK
6.165588100000000,886,209,185,Read,NAK
6.165991200000000,887,208,109,Write,ACK
6.166086400000000,887,208,10,Write,ACK
6.166181600000000,887,208,192,Write,ACK
6.166488000000000,888,208,111,Write,ACK
6.166583200000000,888,208,163,Write,ACK
6.166678400000000,888,208,163,Write,ACK
6.166773500000000,888,208,163,Write,ACK
6.166868600000000,888,208,163,Write,ACK
6.166963800000000,888,208,163,Write,ACK
6.167059000000000,888,208,163,Write,ACK
6.167154200000000,888,208,163,Write,ACK
6.167249300000000,888,208,163,Write,ACK
6.167344500000000,888,208,163,Write,ACK
6.167439700000000,888,208,163,Write,ACK
6.167534900000000,888,208,163,Write,ACK
6.167630100000000,888,208,163,Write,ACK
6.167725200000000,888,208,163,Write,ACK
6.167820400000000,888,208,163,Write,ACK
6.167915600000000,888,208,163,Write,ACK
6.168010800000000,888,208,163,Write,ACK
6.168257400000000,889,208,109,Write,ACK
6.168352600000000,889,208,10,Write,ACK
6.168447700000000,889,208,192,Write,ACK
6.168689200000000,890,208,111,Write,ACK
6.168919600000000,891,209,163,Read,ACK
6.169015700000000,891,209,163,Read,ACK
6.169111900000000,891,209,163,Read,ACK
6.169208000000000,891,209,163,Read,ACK
6.169304200000000,891,209,163,Read,ACK
6.169400400000000,891,209,163,Read,ACK
6.169496600000000,891,209,163,Read,ACK
6.169592800000000,891,209,163,Read,ACK
6.169688900000000,891,209,163,Read,ACK
6.169785100000000,891,209,163,Read,ACK
6.169881200000000,891,209,163,Read,ACK
6.169977300000000,891,209,163,Read,ACK
6.170073500000000,891,209,163,Read,ACK
6.170169700000000,891,209,163,Read,ACK
6.170265900000000,891,209,163,Read,ACK
6.170362000000000,891,209,163,Read,NAK
6.170760000000000,892,208,109,Write,ACK
6.170855100000000,892,208,10,Write,ACK
6.170950300000000,892,208,208,Write,ACK
6.171256800000000,893,208,111,Write,ACK
6.171352000000000,893,208,216,Write,ACK
6.171447200000000,893,208,216,Write,ACK
6.171542300000000,893,208,216,Write,ACK
6.171637500000000,893,208,187,Write,ACK
6.171732700000000,893,208,179,Write,ACK
6.171827900000000,893,208,183,Write,ACK
6.171923100000000,893,208,241,Write,ACK
6.172018200000000,893,208,170,Write,ACK
6.172113400000000,893,208,249,Write,ACK
6.172208600000000,893,208,218,Write,ACK
6.172303800000000,893,208,255,Write,ACK
6.172398900000000,893,208,217,Write,ACK
6.172494100000000,893,208,128,Write,ACK
6.172589300000000,893,208,154,Write,ACK
6.172684500000000,893,208,170,Write,ACK
6.172779700000000,893,208,40,Write,ACK
6.173036300000000,894,208,109,Write,ACK
6.173131400000000,894,208,10,Write,ACK
6.173226600000000,894,208,208,Write,ACK
6.173468100000000,895,208,111,Write,ACK
6.173693400000000,896,209,216,Read,ACK
6.173789600000000,896,209,216,Read,ACK
6.173885800000000,896,209,216,Read,ACK
6.173981900000000,896,209,187,Read,ACK
6.174078000000000,896,209,179,Read,ACK
6.174174200000000,896,209,183,Read,ACK
6.174270300000000,896,209,241,Read,ACK
6.174366500000000,896,209,170,Read,ACK
6.174462700000000,896,209,249,Read,ACK
6.174558900000000,896,209,218,Read,ACK
6.174655100000000,896,209,255,Read,ACK
6.174751200000000,896,209,217,Read,ACK
6.174847400000000,896,209,128,Read,ACK
6.174943600000000,896,209,154,Read,ACK
6.175039800000000,896,209,170,Read,ACK
6.175135900000000,896,209,40,Read,NAK
6.175533900000000,897,208,109,Write,ACK
6.175629100000000,897,208,10,Write,ACK
6.175724300000000,897,208,224,Write,ACK
6.176030800000000,898,208,111,Write,ACK
6.176125900000000,898,208,180,Write,ACK
6.176221000000000,898,208,128,Write,ACK
6.176316200000000,898,208,152,Write,ACK
6.176411400000000,898,208,167,Write,ACK
6.176506600000000,898,208,32,Write,ACK
6.176601800000000,898,208,183,Write,ACK
6.176696900000000,898,208,151,Write,ACK
6.176792100000000,898,208,135,Write,ACK
6.176887300000000,898,208,168,Write,ACK
6.176987900000000,898,208,102,Write,ACK
6.177083000000000,898,208,136,Write,ACK
6.177178100000000,898,208,240,Write,ACK
6.177273300000000,898,208,121,Write,ACK
6.177368500000000,898,208,81,Write,ACK
6.177463700000000,898,208,241,Write,ACK
6.177558900000000,898,208,144,Write,ACK
6.177805500000000,899,208,109,Write,ACK
6.177900600000000,899,208,10,Write,ACK
6.177995800000000,899,208,224,Write,ACK
6.178237300000000,900,208,111,Write,ACK
6.178462600000000,901,209,180,Read,ACK
6.178558800000000,901,209,128,Read,ACK
6.178655000000000,901,209,152,Read,ACK
6.178751100000000,901,209,167,Read,ACK
6.178847300000000,901,209,32,Read,ACK
6.178943500000000,901,209,183,Read,ACK
6.179039600000000,901,209,151,Read,ACK
6.179135700000000,901,209,135,Read,ACK
6.179231900000000,901,209,168,Read,ACK
6.179328100000000,901,209,102,Read,ACK
6.179424300000000,901,209,136,Read,ACK
6.179520400000000,901,209,240,Read,ACK
6.179616600000000,901,209,121,Read,ACK
6.179712800000000,901,209,81,Read,ACK
6.179809000000000,901,209,241,Read,ACK
6.179905100000000,901,209,144,Read,NAK
6.180318100000000,902,208,109,Write,ACK
6.180413300000000,902,208,10,Write,ACK
6.180508500000000,902,208,240,Write,ACK
6.180815000000000,903,208,111,Write,ACK
6.180910200000000,903,208,44,Write,ACK
6.181005400000000,903,208,135,Write,ACK
6.181100500000000,903,208,12,Write,ACK
6.181195700000000,903,208,167,Write,ACK
6.181290900000000,903,208,129,Write,ACK
6.181386100000000,903,208,151,Write,ACK
6.181481300000000,903,208,98,Write,ACK
6.181576400000000,903,208,147,Write,ACK
6.181671600000000,903,208,240,Write,ACK
6.181766800000000,903,208,113,Write,ACK
6.181862000000000,903,208,113,Write,ACK
6.181957200000000,903,208,96,Write,ACK
6.182052300000000,903,208,133,Write,ACK
6.182147500000000,903,208,148,Write,ACK
6.182242600000000,903,208,1,Write,ACK
6.182337800000000,903,208,41,Write,ACK
6.182584400000000,904,208,109,Write,ACK
6.182679500000000,904,208,10,Write,ACK
6.182774700000000,904,208,240,Write,ACK
6.183016200000000,905,208,111,Write,ACK
6.183246500000000,906,209,44,Read,ACK
6.183342700000000,906,209,135,Read,ACK
6.183438800000000,906,209,12,Read,ACK
6.183535000000000,906,209,167,Read,ACK
6.183631200000000,906,209,129,Read,ACK
6.183727400000000,906,209,151,Read,ACK
6.183823600000000,906,209,98,Read,ACK
6.183919700000000,906,209,147,Read,ACK
6.184015900000000,906,209,240,Read,ACK
6.184112100000000,906,209,113,Read,ACK
6.184208300000000,906,209,113,Read,ACK
6.184304500000000,906,209,96,Read,ACK
6.184400600000000,906,209,133,Read,ACK
6.184496800000000,906,209,148,Read,ACK
6.184593000000000,906,209,1,Read,ACK
6.184689100000000,906,209,41,Read,NAK
6.185087200000000,907,208,109,Write,ACK
6.185182400000000,907,208,11,Write,ACK
6.185277600000000,907,208,0,Write,ACK
6.185584100000000,908,208,111,Write,ACK
6.185679300000000,908,208,81,Write,ACK
6.185774500000000,908,208,121,Write,ACK
6.185869600000000,908,208,144,Write,ACK
6.185964800000000,908,208,165,Write,ACK
6.186060000000000,908,208,241,Write,ACK
6.186155200000000,908,208,40,Write,ACK
6.186250300000000,908,208,76,Write,ACK
6.186345500000000,908,208,108,Write,ACK
6.186440700000000,908,208,135,Write,ACK
6.186535900000000,908,208,12,Write,ACK
6.186631100000000,908,208,149,Write,ACK
6.186726200000000,908,208,24,Write,ACK
6.186821400000000,908,208,133,Write,ACK
6.186916600000000,908,208,120,Write,ACK
6.187011800000000,908,208,163,Write,ACK
6.187107000000000,908,208,131,Write,ACK
6.187363400000000,909,208,109,Write,ACK
6.187458600000000,909,208,11,Write,ACK
6.187553700000000,909,208,0,Write,ACK
6.187795300000000,910,208,111,Write,ACK
6.188020600000000,911,209,81,Read,ACK
6.188116700000000,911,209,121,Read,ACK
6.188212900000000,911,209,144,Read,ACK
6.188309000000000,911,209,165,Read,ACK
6.188405100000000,911,209,241,Read,ACK
6.188501300000000,911,209,40,Read,ACK
6.188597500000000,911,209,76,Read,ACK
6.188693600000000,911,209,108,Read,ACK
6.188789800000000,911,209,135,Read,ACK
6.188886000000000,911,209,12,Read,ACK
6.188982200000000,911,209,149,Read,ACK
6.189078300000000,911,209,24,Read,ACK
6.189174500000000,911,209,133,Read,ACK
6.189275800000000,911,209,120,Read,ACK
6.189371900000000,911,209,163,Read,ACK
6.189468000000000,911,209,131,Read,NAK
6.189866100000000,912,208,109,Write,ACK
6.189961300000000,912,208,11,Write,ACK
6.190056400000000,912,208,16,Write,ACK
6.190368000000000,913,208,111,Write,ACK
6.190463200000000,913,208,144,Write,ACK
6.190558300000000,913,208,40,Write,ACK
6.190653500000000,913,208,76,Write,ACK
6.190748700000000,913,208,108,Write,ACK
6.190843900000000,913,208,136,Write,ACK
6.190939100000000,913,208,108,Write,ACK
6.191034200000000,913,208,216,Write,ACK
6.191129400000000,913,208,243,Write,ACK
6.191224500000000,913,208,162,Write,ACK
6.191322600000000,913,208,130,Write,ACK
6.191417800000000,913,208,0,Write,ACK
6.191512900000000,913,208,242,Write,ACK
6.191608100000000,913,208,16,Write,ACK
6.191703300000000,913,208,168,Write,ACK
6.191798500000000,913,208,146,Write,ACK
6.191893700000000,913,208,25,Write,ACK
6.192140300000000,914,208,109,Write,ACK
6.192235400000000,914,208,11,Write,ACK
6.192330600000000,914,208,16,Write,ACK
6.192572100000000,915,208,111,Write,ACK
6.192797400000000,916,209,144,Read,ACK
6.192893600000000,916,209,40,Read,ACK
6.192989800000000,916,209,76,Read,ACK
6.193085900000000,916,209,108,Read,ACK
6.193182100000000,916,209,136,Read,ACK
6.193278300000000,916,209,108,Read,ACK
6.193374500000000,916,209,216,Read,ACK
6.193470600000000,916,209,243,Read,ACK
6.193566800000000,916,209,162,Read,ACK
6.193663000000000,916,209,130,Read,ACK
6.193759200000000,916,209,0,Read,ACK
6.193855400000000,916,209,242,Read,ACK
6.193951500000000,916,209,16,Read,ACK
6.194047700000000,916,209,168,Read,ACK
6.194143900000000,916,209,146,Read,ACK
6.194240000000000,916,209,25,Read,NAK
6.194643100000000,917,208,109,Write,ACK
6.194738300000000,917,208,11,Write,ACK
6.194833500000000,917,208,32,Write,ACK
6.195140000000000,918,208,111,Write,ACK
6.195235100000000,918,208,128,Write,ACK
6.195330300000000,918,208,162,Write,ACK
6.195425400000000,918,208,242,Write,ACK
6.195520500000000,918,208,217,Write,ACK
6.195615700000000,918,208,38,Write,ACK
6.195710900000000,918,208,216,Write,ACK
6.195806100000000,918,208,241,Write,ACK
6.195901200000000,918,208,136,Write,ACK
6.195996400000000,918,208,168,Write,ACK
6.196091600000000,918,208,77,Write,ACK
6.196186800000000,918,208,217,Write,ACK
6.196282000000000,918,208,72,Write,ACK
6.196377100000000,918,208,216,Write,ACK
6.196472300000000,918,208,150,Write,ACK
6.196567500000000,918,208,168,Write,ACK
6.196662700000000,918,208,57,Write,ACK
6.196909300000000,919,208,109,Write,ACK
6.197004500000000,919,208,11,Write,ACK
6.197099600000000,919,208,32,Write,ACK
6.197344200000000,920,208,111,Write,ACK
6.197574600000000,921,209,128,Read,ACK
6.197670800000000,921,209,162,Read,ACK
6.197767000000000,921,209,242,Read,ACK
6.197863100000000,921,209,217,Read,ACK
6.197959300000000,921,209,38,Read,ACK
6.198055500000000,921,209,216,Read,ACK
6.198151700000000,921,209,241,Read,ACK
6.198247800000000,921,209,136,Read,ACK
6.198344000000000,921,209,168,Read,ACK
6.198440100000000,921,209,77,Read,ACK
6.198536300000000,921,209,217,Read,ACK
6.198632400000000,921,209,72,Read,ACK
6.198728600000000,921,209,216,Read,ACK
6.198824700000000,921,209,150,Read,ACK
6.198920900000000,921,209,168,Read,ACK
6.199017000000000,921,209,57,Read,NAK
6.199425100000000,922,208,109,Write,ACK
6.199520200000000,922,208,11,Write,ACK
6.199615300000000,922,208,48,Write,ACK
6.199921800000000,923,208,111,Write,ACK
6.200017000000000,923,208,128,Write,ACK
6.200112200000000,923,208,217,Write,ACK
6.200207400000000,923,208,60,Write,ACK
6.200302500000000,923,208,216,Write,ACK
6.200397700000000,923,208,149,Write,ACK
6.200492900000000,923,208,128,Write,ACK
6.200588100000000,923,208,168,Write,ACK
6.200683300000000,923,208,57,Write,ACK
6.200778400000000,923,208,166,Write,ACK
6.200873600000000,923,208,134,Write,ACK
6.200968800000000,923,208,152,Write,ACK
6.201064000000000,923,208,217,Write,ACK
6.201159200000000,923,208,44,Write,ACK
6.201254300000000,923,208,218,Write,ACK
6.201349500000000,923,208,135,Write,ACK
6.201444700000000,923,208,167,Write,ACK
6.201701300000000,924,208,109,Write,ACK
6.201796500000000,924,208,11,Write,ACK
6.201891700000000,924,208,48,Write,ACK
6.202133200000000,925,208,111,Write,ACK
6.202358400000000,926,209,128,Read,ACK
6.202454600000000,926,209,217,Read,ACK
6.202550800000000,926,209,60,Read,ACK
6.202646900000000,926,209,216,Read,ACK
6.202743000000000,926,209,149,Read,ACK
6.202839200000000,926,209,128,Read,ACK
6.202935400000000,926,209,168,Read,ACK
6.203031600000000,926,209,57,Read,ACK
6.203127700000000,926,209,166,Read,ACK
6.203223900000000,926,209,134,Read,ACK
6.203320100000000,926,209,152,Read,ACK
6.203416300000000,926,209,217,Read,ACK
6.203512400000000,926,209,44,Read,ACK
6.203610700000000,926,209,218,Read,ACK
6.203706900000000,926,209,135,Read,ACK
6.203803000000000,926,209,167,Read,NAK
6.204201100000000,927,208,109,Write,ACK
6.204296300000000,927,208,11,Write,ACK
6.204391400000000,927,208,64,Write,ACK
6.204697900000000,928,208,111,Write,ACK
6.204793000000000,928,208,44,Write,ACK
6.204888200000000,928,208,216,Write,ACK
6.204983400000000,928,208,168,Write,ACK
6.205078600000000,928,208,137,Write,ACK
6.205173700000000,928,208,149,Write,ACK
6.205268900000000,928,208,25,Write,ACK
6.205364100000000,928,208,169,Write,ACK
6.205459300000000,928,208,128,Write,ACK
6.205554500000000,928,208,217,Write,ACK
6.205649600000000,928,208,56,Write,ACK
6.205744800000000,928,208,216,Write,ACK
6.205840000000000,928,208,168,Write,ACK
6.205935200000000,928,208,137,Write,ACK
6.206030300000000,928,208,57,Write,ACK
6.206125500000000,928,208,169,Write,ACK
6.206220700000000,928,208,128,Write,ACK
6.206467300000000,929,208,109,Write,ACK
6.206562500000000,929,208,11,Write,ACK
6.206657700000000,929,208,64,Write,ACK
6.206899200000000,930,208,111,Write,ACK
6.207124500000000,931,209,44,Read,ACK
6.207220600000000,931,209,216,Read,ACK
6.207316800000000,931,209,168,Read,ACK
6.207413000000000,931,209,137,Read,ACK
6.207509200000000,931,209,149,Read,ACK
6.207605300000000,931,209,25,Read,ACK
6.207706100000000,931,209,169,Read,ACK
6.207802300000000,931,209,128,Read,ACK
6.207898400000000,931,209,217,Read,ACK
6.207994600000000,931,209,56,Read,ACK
6.208090800000000,931,209,216,Read,ACK
6.208187000000000,931,209,168,Read,ACK
6.208283100000000,931,209,137,Read,ACK
6.208379300000000,931,209,57,Read,ACK
6.208475500000000,931,209,169,Read,ACK
6.208571600000000,931,209,128,Read,NAK
6.208974700000000,932,208,109,Write,ACK
6.209069900000000,932,208,11,Write,ACK
6.209165100000000,932,208,80,Write,ACK
6.209471500000000,933,208,111,Write,ACK
6.209566700000000,933,208,218,Write,ACK
6.209661900000000,933,208,60,Write,ACK
6.209757000000000,933,208,216,Write,ACK
6.209852100000000,933,208,168,Write,ACK
6.209947300000000,933,208,46,Write,ACK
6.210042500000000,933,208,168,Write,ACK
6.210137700000000,933,208,57,Write,ACK
6.210232900000000,933,208,144,Write,ACK
6.210328000000000,933,208,217,Write,ACK
6.210423200000000,933,208,12,Write,ACK
6.210518400000000,933,208,216,Write,ACK
6.210613600000000,933,208,168,Write,ACK
6.210708700000000,933,208,149,Write,ACK
6.210803900000000,933,208,49,Write,ACK
6.210899100000000,933,208,152,Write,ACK
6.210994300000000,933,208,217,Write,ACK
6.211240900000000,934,208,109,Write,ACK
6.211336100000000,934,208,11,Write,ACK
6.211431200000000,934,208,80,Write,ACK
6.211672700000000,935,208,111,Write,ACK
6.211898100000000,936,209,218,Read,ACK
6.211994300000000,936,209,60,Read,ACK
6.212090400000000,936,209,216,Read,ACK
6.212186600000000,936,209,168,Read,ACK
6.212282700000000,936,209,46,Read,ACK
6.212378900000000,936,209,168,Read,ACK
6.212475100000000,936,209,57,Read,ACK
6.212571300000000,936,209,144,Read,ACK
6.212667400000000,936,209,217,Read,ACK
6.212763600000000,936,209,12,Read,ACK
6.212859700000000,936,209,216,Read,ACK
6.212955900000000,936,209,168,Read,ACK
6.213052000000000,936,209,149,Read,ACK
6.213148200000000,936,209,49,Read,ACK
6.213244400000000,936,209,152,Read,ACK
6.213340500000000,936,209,217,Read,NAK
6.213738500000000,937,208,109,Write,ACK
6.213833700000000,937,208,11,Write,ACK
6.213928800000000,937,208,96,Write,ACK
6.214235300000000,938,208,111,Write,ACK
6.214330500000000,938,208,12,Write,ACK
6.214425700000000,938,208,216,Write,ACK
6.214520800000000,938,208,168,Write,ACK
6.214616000000000,938,208,9,Write,ACK
6.214711200000000,938,208,217,Write,ACK
6.214806400000000,938,208,255,Write,ACK
6.214901600000000,938,208,216,Write,ACK
6.214996700000000,938,208,1,Write,ACK
6.215091900000000,938,208,218,Write,ACK
6.215187100000000,938,208,255,Write,ACK
6.215282300000000,938,208,216,Write,ACK
6.215377500000000,938,208,149,Write,ACK
6.215472600000000,938,208,57,Write,ACK
6.215567800000000,938,208,169,Write,ACK
6.215663000000000,938,208,218,Write,ACK
6.215758200000000,938,208,38,Write,ACK
6.216014800000000,939,208,109,Write,ACK
6.216110000000000,939,208,11,Write,ACK
6.216205100000000,939,208,96,Write,ACK
6.216446600000000,940,208,111,Write,ACK
6.216671900000000,941,209,12,Read,ACK
6.216768100000000,941,209,216,Read,ACK
6.216864300000000,941,209,168,Read,ACK
6.216960400000000,941,209,9,Read,ACK
6.217056500000000,941,209,217,Read,ACK
6.217152700000000,941,209,255,Read,ACK
6.217248900000000,941,209,216,Read,ACK
6.217345000000000,941,209,1,Read,ACK
6.217441200000000,941,209,218,Read,ACK
6.217537400000000,941,209,255,Read,ACK
6.217633600000000,941,209,216,Read,ACK
6.217729800000000,941,209,149,Read,ACK
6.217825900000000,941,209,57,Read,ACK
6.217922100000000,941,209,169,Read,ACK
6.218018300000000,941,209,218,Read,ACK
6.218114400000000,941,209,38,Read,NAK
6.218512400000000,942,208,109,Write,ACK
6.218607600000000,942,208,11,Write,ACK
6.218702800000000,942,208,112,Write,ACK
6.219009300000000,943,208,111,Write,ACK
6.219104400000000,943,208,255,Write,ACK
6.219200800000000,943,208,216,Write,ACK
6.219296000000000,943,208,144,Write,ACK
6.219391200000000,943,208,168,Write,ACK
6.219486300000000,943,208,13,Write,ACK
6.219581500000000,943,208,137,Write,ACK
6.219676700000000,943,208,153,Write,ACK
6.219771900000000,943,208,168,Write,ACK
6.219867100000000,943,208,16,Write,ACK
6.219962200000000,943,208,128,Write,ACK
6.220057400000000,943,208,152,Write,ACK
6.220152600000000,943,208,33,Write,ACK
6.220247800000000,943,208,218,Write,ACK
6.220343000000000,943,208,46,Write,ACK
6.220438100000000,943,208,216,Write,ACK
6.220533300000000,943,208,137,Write,ACK
6.220779900000000,944,208,109,Write,ACK
6.220875100000000,944,208,11,Write,ACK
6.220970300000000,944,208,112,Write,ACK
6.221211800000000,945,208,111,Write,ACK
6.221437000000000,946,209,255,Read,ACK
6.221533200000000,946,209,216,Read,ACK
6.221629400000000,946,209,144,Read,ACK
6.221725600000000,946,209,168,Read,ACK
6.221821800000000,946,209,13,Read,ACK
6.221917900000000,946,209,137,Read,ACK
6.222014100000000,946,209,153,Read,ACK
6.222110200000000,946,209,168,Read,ACK
6.222206400000000,946,209,16,Read,ACK
6.222302500000000,946,209,128,Read,ACK
6.222398700000000,946,209,152,Read,ACK
6.222494900000000,946,209,33,Read,ACK
6.222591100000000,946,209,218,Read,ACK
6.222687300000000,946,209,46,Read,ACK
6.222783400000000,946,209,216,Read,ACK
6.222879500000000,946,209,137,Read,NAK
6.223282600000000,947,208,109,Write,ACK
6.223377800000000,947,208,11,Write,ACK
6.223472900000000,947,208,128,Write,ACK
6.223779500000000,948,208,111,Write,ACK
6.223874600000000,948,208,153,Write,ACK
6.223969800000000,948,208,168,Write,ACK
6.224065000000000,948,208,49,Write,ACK
6.224160100000000,948,208,128,Write,ACK
6.224255200000000,948,208,218,Write,ACK
6.224350400000000,948,208,46,Write,ACK
6.224445600000000,948,208,216,Write,ACK
6.224540800000000,948,208,168,Write,ACK
6.224636000000000,948,208,134,Write,ACK
6.224731100000000,948,208,150,Write,ACK
6.224826300000000,948,208,49,Write,ACK
6.224921500000000,948,208,128,Write,ACK
6.225016700000000,948,208,218,Write,ACK
6.225111800000000,948,208,46,Write,ACK
6.225207000000000,948,208,216,Write,ACK
6.225302200000000,948,208,168,Write,ACK
6.225548800000000,949,208,109,Write,ACK
6.225644000000000,949,208,11,Write,ACK
6.225739200000000,949,208,128,Write,ACK
6.225980600000000,950,208,111,Write,ACK
6.226205900000000,951,209,153,Read,ACK
6.226302100000000,951,209,168,Read,ACK
6.226398300000000,951,209,49,Read,ACK
6.226494500000000,951,209,128,Read,ACK
6.226590700000000,951,209,218,Read,ACK
6.226686800000000,951,209,46,Read,ACK
6.226783000000000,951,209,216,Read,ACK
6.226879200000000,951,209,168,Read,ACK
6.226975400000000,951,209,134,Read,ACK
6.227071600000000,951,209,150,Read,ACK
6.227167700000000,951,209,49,Read,ACK
6.227263800000000,951,209,128,Read,ACK
6.227360000000000,951,209,218,Read,ACK
6.227456100000000,951,209,46,Read,ACK
6.227552300000000,951,209,216,Read,ACK
6.227648400000000,951,209,168,Read,NAK
6.228046500000000,952,208,109,Write,ACK
6.228141600000000,952,208,11,Write,ACK
6.228236800000000,952,208,144,Write,ACK
6.228543400000000,953,208,111,Write,ACK
6.228638500000000,953,208,135,Write,ACK
6.228733700000000,953,208,49,Write,ACK
6.228828900000000,953,208,128,Write,ACK
6.228924100000000,953,208,218,Write,ACK
6.229019300000000,953,208,46,Write,ACK
6.229114400000000,953,208,216,Write,ACK
6.229209600000000,953,208,168,Write,ACK
6.229304800000000,953,208,130,Write,ACK
6.229400000000000,953,208,146,Write,ACK
6.229495100000000,953,208,243,Write,ACK
6.229590300000000,953,208,65,Write,ACK
6.229685500000000,953,208,128,Write,ACK
6.229780700000000,953,208,241,Write,ACK
6.229875900000000,953,208,217,Write,ACK
6.229971000000000,953,208,46,Write,ACK
6.230066200000000,953,208,216,Write,ACK
6.230327500000000,954,208,109,Write,ACK
6.230422700000000,954,208,11,Write,ACK
6.230517900000000,954,208,144,Write,ACK
6.230759400000000,955,208,111,Write,ACK
6.230984700000000,956,209,135,Read,ACK
6.231080900000000,956,209,49,Read,ACK
6.231177100000000,956,209,128,Read,ACK
6.231273200000000,956,209,218,Read,ACK
6.231369400000000,956,209,46,Read,ACK
6.231465600000000,956,209,216,Read,ACK
6.231561800000000,956,209,168,Read,ACK
6.231658000000000,956,209,130,Read,ACK
6.231754100000000,956,209,146,Read,ACK
6.231850300000000,956,209,243,Read,ACK
6.231946500000000,956,209,65,Read,ACK
6.232042700000000,956,209,128,Read,ACK
6.232138900000000,956,209,241,Read,ACK
6.232235000000000,956,209,217,Read,ACK
6.232331100000000,956,209,46,Read,ACK
6.232427100000000,956,209,216,Read,NAK
6.232825200000000,957,208,109,Write,ACK
6.232920400000000,957,208,11,Write,ACK
6.233015600000000,957,208,160,Write,ACK
6.233327100000000,958,208,111,Write,ACK
6.233422300000000,958,208,168,Write,ACK
6.233517500000000,958,208,130,Write,ACK
6.233612700000000,958,208,243,Write,ACK
6.233707800000000,958,208,25,Write,ACK
6.233803000000000,958,208,128,Write,ACK
6.233898200000000,958,208,241,Write,ACK
6.233993400000000,958,208,217,Write,ACK
6.234088600000000,958,208,46,Write,ACK
6.234183700000000,958,208,216,Write,ACK
6.234278800000000,958,208,130,Write,ACK
6.234374000000000,958,208,172,Write,ACK
6.234469100000000,958,208,243,Write,ACK
6.234564300000000,958,208,192,Write,ACK
6.234659400000000,958,208,162,Write,ACK
6.234754600000000,958,208,128,Write,ACK
6.234849800000000,958,208,34,Write,ACK
6.235096400000000,959,208,109,Write,ACK
6.235191600000000,959,208,11,Write,ACK
6.235286800000000,959,208,160,Write,ACK
6.235528300000000,960,208,111,Write,ACK
6.235753600000000,961,209,168,Read,ACK
6.235849800000000,961,209,130,Read,ACK
6.235946000000000,961,209,243,Read,ACK
6.236042100000000,961,209,25,Read,ACK
6.236138300000000,961,209,128,Read,ACK
6.236234400000000,961,209,241,Read,ACK
6.236330600000000,961,209,217,Read,ACK
6.236426700000000,961,209,46,Read,ACK
6.236522800000000,961,209,216,Read,ACK
6.236619000000000,961,209,130,Read,ACK
6.236715200000000,961,209,172,Read,ACK
6.236811400000000,961,209,243,Read,ACK
6.236907600000000,961,209,192,Read,ACK
6.237003700000000,961,209,162,Read,ACK
6.237099900000000,961,209,128,Read,ACK
6.237196000000000,961,209,34,Read,NAK
6.237599100000000,962,208,109,Write,ACK
6.237694300000000,962,208,11,Write,ACK
6.237789500000000,962,208,176,Write,ACK
6.238096000000000,963,208,111,Write,ACK
6.238191200000000,963,208,241,Write,ACK
6.238286300000000,963,208,166,Write,ACK
6.238381500000000,963,208,46,Write,ACK
6.238476600000000,963,208,167,Write,ACK
6.238571700000000,963,208,46,Write,ACK
6.238666900000000,963,208,169,Write,ACK
6.238762100000000,963,208,34,Write,ACK
6.238857300000000,963,208,152,Write,ACK
6.238952400000000,963,208,168,Write,ACK
6.239047600000000,963,208,41,Write,ACK
6.239142800000000,963,208,218,Write,ACK
6.239238000000000,963,208,172,Write,ACK
6.239333200000000,963,208,222,Write,ACK
6.239428300000000,963,208,255,Write,ACK
6.239523500000000,963,208,216,Write,ACK
6.239618700000000,963,208,162,Write,ACK
6.239865300000000,964,208,109,Write,ACK
6.239960500000000,964,208,11,Write,ACK
6.240055700000000,964,208,176,Write,ACK
6.240299900000000,965,208,111,Write,ACK
6.240525200000000,966,209,241,Read,ACK
6.240621300000000,966,209,166,Read,ACK
6.240717500000000,966,209,46,Read,ACK
6.240813600000000,966,209,167,Read,ACK
6.240909800000000,966,209,46,Read,ACK
6.241006000000000,966,209,169,Read,ACK
6.241102200000000,966,209,34,Read,ACK
6.241204700000000,966,209,152,Read,ACK
6.241300900000000,966,209,168,Read,ACK
6.241397100000000,966,209,41,Read,ACK
6.241495100000000,966,209,218,Read,ACK
6.241591200000000,966,209,172,Read,ACK
6.241687400000000,966,209,222,Read,ACK
6.241783600000000,966,209,255,Read,ACK
6.241879700000000,966,209,216,Read,ACK
6.241975900000000,966,209,162,Read,NAK
6.242383900000000,967,208,109,Write,ACK
6.242479100000000,967,208,11,Write,ACK
6.242574200000000,967,208,192,Write,ACK
6.242880700000000,968,208,111,Write,ACK
6.242975800000000,968,208,242,Write,ACK
6.243071000000000,968,208,42,Write,ACK
6.243166200000000,968,208,241,Write,ACK
6.243261400000000,968,208,169,Write,ACK
6.243356500000000,968,208,46,Write,ACK
6.243451700000000,968,208,130,Write,ACK
6.243546900000000,968,208,146,Write,ACK
6.243642100000000,968,208,168,Write,ACK
6.243737300000000,968,208,242,Write,ACK
6.243832400000000,968,208,49,Write,ACK
6.243927600000000,968,208,128,Write,ACK
6.244022800000000,968,208,166,Write,ACK
6.244118000000000,968,208,150,Write,ACK
6.244213200000000,968,208,241,Write,ACK
6.244308300000000,968,208,217,Write,ACK
6.244403500000000,968,208,0,Write,ACK
6.244650100000000,969,208,109,Write,ACK
6.244745300000000,969,208,11,Write,ACK
6.244840500000000,969,208,192,Write,ACK
6.245082000000000,970,208,111,Write,ACK
6.245312300000000,971,209,242,Read,ACK
6.245408400000000,971,209,42,Read,ACK
6.245504600000000,971,209,241,Read,ACK
6.245600800000000,971,209,169,Read,ACK
6.245697000000000,971,209,46,Read,ACK
6.245793100000000,971,209,130,Read,ACK
6.245889300000000,971,209,146,Read,ACK
6.245985500000000,971,209,168,Read,ACK
6.246081700000000,971,209,242,Read,ACK
6.246177900000000,971,209,49,Read,ACK
6.246274000000000,971,209,128,Read,ACK
6.246370200000000,971,209,166,Read,ACK
6.246466300000000,971,209,150,Read,ACK
6.246562500000000,971,209,241,Read,ACK
6.246658600000000,971,209,217,Read,ACK
6.246754700000000,971,209,0,Read,NAK
6.247152800000000,972,208,109,Write,ACK
6.247247900000000,972,208,11,Write,ACK
6.247343100000000,972,208,208,Write,ACK
6.247649500000000,973,208,111,Write,ACK
6.247744700000000,973,208,172,Write,ACK
6.247839800000000,973,208,140,Write,ACK
6.247935000000000,973,208,156,Write,ACK
6.248030200000000,973,208,12,Write,ACK
6.248125400000000,973,208,48,Write,ACK
6.248220600000000,973,208,172,Write,ACK
6.248315700000000,973,208,222,Write,ACK
6.248410900000000,973,208,208,Write,ACK
6.248506100000000,973,208,222,Write,ACK
6.248601300000000,973,208,255,Write,ACK
6.248696500000000,973,208,216,Write,ACK
6.248791600000000,973,208,140,Write,ACK
6.248886800000000,973,208,156,Write,ACK
6.248982000000000,973,208,172,Write,ACK
6.249077200000000,973,208,208,Write,ACK
6.249172300000000,973,208,16,Write,ACK
6.249418900000000,974,208,109,Write,ACK
6.249514100000000,974,208,11,Write,ACK
6.249609300000000,974,208,208,Write,ACK
6.249850800000000,975,208,111,Write,ACK
6.250076100000000,976,209,172,Read,ACK
6.250172300000000,976,209,140,Read,ACK
6.250268400000000,976,209,156,Read,ACK
6.250364600000000,976,209,12,Read,ACK
6.250460800000000,976,209,48,Read,ACK
6.250557000000000,976,209,172,Read,ACK
6.250653200000000,976,209,222,Read,ACK
6.250749300000000,976,209,208,Read,ACK
6.250845400000000,976,209,222,Read,ACK
6.250941600000000,976,209,255,Read,ACK
6.251037700000000,976,209,216,Read,ACK
6.251133900000000,976,209,140,Read,ACK
6.251230100000000,976,209,156,Read,ACK
6.251326300000000,976,209,172,Read,ACK
6.251422500000000,976,209,208,Read,ACK
6.251518600000000,976,209,16,Read,NAK
6.251921700000000,977,208,109,Write,ACK
6.252016800000000,977,208,11,Write,ACK
6.252112000000000,977,208,224,Write,ACK
6.252418500000000,978,208,111,Write,ACK
6.252513700000000,978,208,172,Write,ACK
6.252608900000000,978,208,222,Write,ACK
6.252704000000000,978,208,128,Write,ACK
6.252799200000000,978,208,146,Write,ACK
6.252894300000000,978,208,162,Write,ACK
6.252989400000000,978,208,242,Write,ACK
6.253084600000000,978,208,76,Write,ACK
6.253179800000000,978,208,130,Write,ACK
6.253275000000000,978,208,168,Write,ACK
6.253370200000000,978,208,241,Write,ACK
6.253465300000000,978,208,202,Write,ACK
6.253560500000000,978,208,242,Write,ACK
6.253655700000000,978,208,53,Write,ACK
6.253750900000000,978,208,241,Write,ACK
6.253846100000000,978,208,150,Write,ACK
6.253941200000000,978,208,136,Write,ACK
6.254187800000000,979,208,109,Write,ACK
6.254283000000000,979,208,11,Write,ACK
6.254378200000000,979,208,224,Write,ACK
6.254619700000000,980,208,111,Write,ACK
6.254844900000000,981,209,172,Read,ACK
6.254941000000000,981,209,222,Read,ACK
6.255037200000000,981,209,128,Read,ACK
6.255133400000000,981,209,146,Read,ACK
6.255229600000000,981,209,162,Read,ACK
6.255325700000000,981,209,242,Read,ACK
6.255421900000000,981,209,76,Read,ACK
6.255518100000000,981,209,130,Read,ACK
6.255614300000000,981,209,168,Read,ACK
6.255710500000000,981,209,241,Read,ACK
6.255806600000000,981,209,202,Read,ACK
6.255902800000000,981,209,242,Read,ACK
6.255999000000000,981,209,53,Read,ACK
6.256095200000000,981,209,241,Read,ACK
6.256191400000000,981,209,150,Read,ACK
6.256287500000000,981,209,136,Read,NAK
6.256675600000000,982,208,109,Write,ACK
6.256770800000000,982,208,11,Write,ACK
6.256866000000000,982,208,240,Write,ACK
6.257127500000000,983,208,111,Write,ACK
6.257222700000000,983,208,166,Write,ACK
6.257317900000000,983,208,217,Write,ACK
6.257413100000000,983,208,0,Write,ACK
6.257508200000000,983,208,216,Write,ACK
6.257603400000000,983,208,241,Write,ACK
6.257698600000000,983,208,255,Write,ACK
6.257945200000000,984,208,109,Write,ACK
6.258040400000000,984,208,11,Write,ACK
6.258135600000000,984,208,240,Write,ACK
6.258377000000000,985,208,111,Write,ACK
6.258602300000000,986,209,166,Read,ACK
6.258698500000000,986,209,217,Read,ACK
6.258794700000000,986,209,0,Read,ACK
6.258890900000000,986,209,216,Read,ACK
6.258987000000000,986,209,241,Read,ACK
6.259083000000000,986,209,255,Read,NAK
6.259391100000000,987,208,112,Write,ACK
6.259486300000000,987,208,4,Write,ACK
6.259581500000000,987,208,0,Write,ACK
6.259838100000000,988,208,109,Write,ACK
6.259933300000000,988,208,4,Write,ACK
6.260028400000000,988,208,38,Write,ACK
6.260274900000000,989,208,111,Write,ACK
6.260370100000000,989,208,76,Write,ACK
6.260465300000000,989,208,205,Write,ACK
6.260560500000000,989,208,108,Write,ACK
6.260807000000000,990,208,109,Write,ACK
6.260902200000000,990,208,4,Write,ACK
6.260997300000000,990,208,42,Write,ACK
6.261243700000000,991,208,111,Write,ACK
6.261338900000000,991,208,12,Write,ACK
6.261434100000000,991,208,201,Write,ACK
6.261529300000000,991,208,44,Write,ACK
6.261780700000000,992,208,109,Write,ACK
6.261875900000000,992,208,4,Write,ACK
6.261972300000000,992,208,64,Write,ACK
6.262218700000000,993,208,111,Write,ACK
6.262313900000000,993,208,54,Write,ACK
6.262409100000000,993,208,86,Write,ACK
6.262504200000000,993,208,118,Write,ACK
6.262750800000000,994,208,109,Write,ACK
6.262845900000000,994,208,4,Write,ACK
6.262941100000000,994,208,49,Write,ACK
6.263187700000000,995,208,111,Write,ACK
6.263282800000000,995,208,38,Write,ACK
6.263378000000000,995,208,70,Write,ACK
6.263473200000000,995,208,102,Write,ACK
6.263724700000000,996,208,109,Write,ACK
6.263819900000000,996,208,0,Write,ACK
6.263915100000000,996,208,104,Write,ACK
6.264171700000000,997,208,111,Write,ACK
6.264266800000000,997,208,2,Write,ACK
6.264362000000000,997,208,202,Write,ACK
6.264457200000000,997,208,227,Write,ACK
6.264552400000000,997,208,9,Write,ACK
6.264804000000000,998,208,109,Write,ACK
6.264899100000000,998,208,10,Write,ACK
6.264994300000000,998,208,167,Write,ACK
6.265275800000000,999,208,111,Write,ACK
6.265371000000000,999,208,163,Write,ACK
6.265466200000000,999,208,192,Write,ACK
6.265561300000000,999,208,200,Write,ACK
6.265656500000000,999,208,194,Write,ACK
6.265751700000000,999,208,196,Write,ACK
6.265846900000000,999,208,204,Write,ACK
6.265942100000000,999,208,198,Write,ACK
6.266037200000000,999,208,163,Write,ACK
6.266132400000000,999,208,163,Write,ACK
6.266227600000000,999,208,163,Write,ACK
6.266474100000000,1000,208,109,Write,ACK
6.266569300000000,1000,208,10,Write,ACK
6.266664500000000,1000,208,182,Write,ACK
6.266906000000000,1001,208,111,Write,ACK
6.267001200000000,1001,208,32,Write,ACK
6.267257600000000,1002,208,109,Write,ACK
6.267352800000000,1002,208,4,Write,ACK
6.267448000000000,1002,208,184,Write,ACK
6.267724600000000,1003,208,111,Write,ACK
6.267819800000000,1003,208,184,Write,ACK
6.267914900000000,1003,208,170,Write,ACK
6.268010100000000,1003,208,170,Write,ACK
6.268105300000000,1003,208,170,Write,ACK
6.268207500000000,1003,208,176,Write,ACK
6.268302700000000,1003,208,136,Write,ACK
6.268397800000000,1003,208,195,Write,ACK
6.268493000000000,1003,208,197,Write,ACK
6.268588200000000,1003,208,199,Write,ACK
6.268839800000000,1004,208,109,Write,ACK
6.268935000000000,1004,208,10,Write,ACK
6.269030200000000,1004,208,162,Write,ACK
6.269286700000000,1005,208,111,Write,ACK
6.269381900000000,1005,208,176,Write,ACK
6.269477100000000,1005,208,128,Write,ACK
6.269572200000000,1005,208,180,Write,ACK
6.269667400000000,1005,208,144,Write,ACK
6.269914000000000,1006,208,109,Write,ACK
6.270009100000000,1006,208,8,Write,ACK
6.270104300000000,1006,208,176,Write,ACK
6.270350800000000,1007,208,111,Write,ACK
6.270446000000000,1007,208,248,Write,ACK
6.270752600000000,1008,208,109,Write,ACK
6.270847700000000,1008,208,1,Write,ACK
6.270942900000000,1008,208,212,Write,ACK
6.271188500000000,1009,208,111,Write,ACK
6.271283600000000,1009,208,80,Write,ACK
6.271378800000000,1009,208,0,Write,ACK
6.271625300000000,1010,208,109,Write,ACK
6.271720500000000,1010,208,1,Write,ACK
6.271815700000000,1010,208,36,Write,ACK
6.272057300000000,1011,208,111,Write,ACK
6.272152400000000,1011,208,60,Write,ACK
6.272247600000000,1011,208,0,Write,ACK
6.272494200000000,1012,208,109,Write,ACK
6.272589400000000,1012,208,1,Write,ACK
6.272684600000000,1012,208,216,Write,ACK
6.272926200000000,1013,208,111,Write,ACK
6.273021400000000,1013,208,80,Write,ACK
6.273116500000000,1013,208,0,Write,ACK
6.273373100000000,1014,208,109,Write,ACK
6.273468300000000,1014,208,1,Write,ACK
6.273563400000000,1014,208,40,Write,ACK
6.273805000000000,1015,208,111,Write,ACK
6.273900200000000,1015,208,60,Write,ACK
6.273995400000000,1015,208,0,Write,ACK
6.274241900000000,1016,208,109,Write,ACK
6.274337100000000,1016,208,1,Write,ACK
6.274432300000000,1016,208,220,Write,ACK
6.274673900000000,1017,208,111,Write,ACK
6.274769100000000,1017,208,80,Write,ACK
6.274864300000000,1017,208,0,Write,ACK
6.275110800000000,1018,208,109,Write,ACK
6.275208300000000,1018,208,1,Write,ACK
6.275303400000000,1018,208,44,Write,ACK
6.275545000000000,1019,208,111,Write,ACK
6.275640100000000,1019,208,60,Write,ACK
6.275735300000000,1019,208,0,Write,ACK
6.275986900000000,1020,208,109,Write,ACK
6.276082000000000,1020,208,1,Write,ACK
6.276177200000000,1020,208,72,Write,ACK
6.276423700000000,1021,208,111,Write,ACK
6.276518900000000,1021,208,63,Write,ACK
6.276770500000000,1022,208,109,Write,ACK
6.276865600000000,1022,208,1,Write,ACK
6.276960800000000,1022,208,79,Write,ACK
6.277202400000000,1023,208,111,Write,ACK
6.277297500000000,1023,208,0,Write,ACK
6.277559100000000,1024,208,109,Write,ACK
6.277654300000000,1024,208,1,Write,ACK
6.277749500000000,1024,208,222,Write,ACK
6.277991100000000,1025,208,111,Write,ACK
6.278086300000000,1025,208,0,Write,ACK
6.278181500000000,1025,208,20,Write,ACK
6.278443000000000,1026,208,109,Write,ACK
6.278538100000000,1026,208,1,Write,ACK
6.278633300000000,1026,208,218,Write,ACK
6.278874900000000,1027,208,111,Write,ACK
6.278970100000000,1027,208,0,Write,ACK
6.279065300000000,1027,208,100,Write,ACK
6.279366800000000,1028,208,109,Write,ACK
6.279462000000000,1028,208,1,Write,ACK
6.279557200000000,1028,208,92,Write,ACK
6.279808800000000,1029,208,111,Write,ACK
6.279903900000000,1029,208,0,Write,ACK
6.279999100000000,1029,208,142,Write,ACK
6.280094300000000,1029,208,249,Write,ACK
6.280189500000000,1029,208,144,Write,ACK
6.280451000000000,1030,208,109,Write,ACK
6.280546100000000,1030,208,1,Write,ACK
6.280641300000000,1030,208,90,Write,ACK
6.280882900000000,1031,208,111,Write,ACK
6.280978100000000,1031,208,0,Write,ACK
6.281073300000000,1031,208,8,Write,ACK
6.281344900000000,1032,208,109,Write,ACK
6.281440000000000,1032,208,1,Write,ACK
6.281535100000000,1032,208,88,Write,ACK
6.281776700000000,1033,208,111,Write,ACK
6.281871900000000,1033,208,0,Write,ACK
6.281967100000000,1033,208,2,Write,ACK
6.282218700000000,1034,208,109,Write,ACK
6.282313900000000,1034,208,7,Write,ACK
6.282409000000000,1034,208,61,Write,ACK
6.282650600000000,1035,208,111,Write,ACK
6.282745800000000,1035,208,216,Write,ACK
6.282997300000000,1036,208,109,Write,ACK
6.283092500000000,1036,208,10,Write,ACK
6.283187700000000,1036,208,152,Write,ACK
6.283439200000000,1037,208,111,Write,ACK
6.283534300000000,1037,208,139,Write,ACK
6.283629400000000,1037,208,139,Write,ACK
6.283724600000000,1037,208,139,Write,ACK
6.283819800000000,1037,208,139,Write,ACK
6.284061300000000,1038,208,56,Write,ACK
6.284156400000000,1038,208,0,Write,ACK
6.284398000000000,1039,208,35,Write,ACK
6.284498300000000,1039,208,0,Write,ACK
6.284739800000000,1040,208,106,Write,ACK
6.284835000000000,1040,208,0,Write,ACK
6.285076500000000,1041,208,106,Write,ACK
6.285171700000000,1041,208,4,Write,ACK
6.285413300000000,1042,208,106,Write,ACK
6.285508500000000,1042,208,64,Write,ACK
6.335745600000000,1043,208,56,Write,ACK
6.335840700000000,1043,208,1,Write,ACK
6.336082300000000,1044,208,35,Write,ACK
6.336177500000000,1044,208,120,Write,ACK
6.336429100000000,1045,208,109,Write,ACK
6.336524300000000,1045,208,10,Write,ACK
6.336619500000000,1045,208,158,Write,ACK
6.336874200000000,1046,208,111,Write,ACK
6.336969400000000,1046,208,32,Write,ACK
6.337064600000000,1046,208,40,Write,ACK
6.337159800000000,1046,208,48,Write,ACK
6.337254900000000,1046,208,56,Write,ACK
6.337496300000000,1047,208,56,Write,ACK
6.337591500000000,1047,208,0,Write,ACK
6.337838000000000,1048,208,35,Write,ACK
6.337933200000000,1048,208,0,Write,ACK
6.338174800000000,1049,208,106,Write,ACK
6.338270000000000,1049,208,0,Write,ACK
6.338511500000000,1050,208,106,Write,ACK
6.338606700000000,1050,208,4,Write,ACK
6.338848300000000,1051,208,106,Write,ACK
6.338943500000000,1051,208,64,Write,ACK
6.389185600000000,1052,208,56,Write,ACK
6.389280800000000,1052,208,1,Write,ACK
6.389522400000000,1053,208,35,Write,ACK
6.389617600000000,1053,208,120,Write,ACK
6.389859200000000,1054,208,56,Write,ACK
6.389954300000000,1054,208,0,Write,ACK
6.390195800000000,1055,208,35,Write,ACK
6.390291000000000,1055,208,0,Write,ACK
6.390532600000000,1056,208,106,Write,ACK
6.390627800000000,1056,208,0,Write,ACK
6.390869300000000,1057,208,106,Write,ACK
6.390964500000000,1057,208,4,Write,ACK
6.391206100000000,1058,208,106,Write,ACK
6.391301300000000,1058,208,64,Write,ACK
6.441543500000000,1059,208,56,Write,ACK
6.441638600000000,1059,208,1,Write,ACK
6.441880200000000,1060,208,35,Write,ACK
6.441975400000000,1060,208,120,Write,ACK
6.442242000000000,1061,208,109,Write,ACK
6.442337200000000,1061,208,2,Write,ACK
6.442432400000000,1061,208,22,Write,ACK
6.442674000000000,1062,208,111,Write,ACK
6.442769200000000,1062,208,0,Write,ACK
6.442864300000000,1062,208,3,Write,ACK
6.443110900000000,1063,208,109,Write,ACK
6.443206100000000,1063,208,10,Write,ACK
6.443301200000000,1063,208,193,Write,ACK
6.443587800000000,1064,208,111,Write,ACK
6.443683000000000,1064,208,254,Write,ACK
6.443778100000000,1064,208,242,Write,ACK
6.443873300000000,1064,208,171,Write,ACK
6.443968500000000,1064,208,196,Write,ACK
6.444063700000000,1064,208,170,Write,ACK
6.444158900000000,1064,208,241,Write,ACK
6.444254000000000,1064,208,223,Write,ACK
6.444349200000000,1064,208,223,Write,ACK
6.444444400000000,1064,208,187,Write,ACK
6.444539600000000,1064,208,175,Write,ACK
6.444634700000000,1064,208,223,Write,ACK
6.444729900000000,1064,208,223,Write,ACK
6.544972700000000,1065,208,56,Write,ACK
6.545067900000000,1065,208,0,Write,ACK
6.545324400000000,1066,208,25,Write,ACK
6.545419600000000,1066,208,4,Write,ACK
6.545676100000000,1067,208,26,Write,ACK
6.545771300000000,1067,208,2,Write,ACK
6.546012800000000,1068,208,35,Write,ACK
6.546108000000000,1068,208,0,Write,ACK
6.546354600000000,1069,208,56,Write,ACK
6.546449800000000,1069,208,2,Write,ACK
6.546691400000000,1070,208,56,Write,ACK
6.546786500000000,1070,208,0,Write,ACK
6.547028100000000,1071,208,35,Write,ACK
6.547123300000000,1071,208,0,Write,ACK
6.547369900000000,1072,208,106,Write,ACK
6.547465000000000,1072,208,0,Write,ACK
6.547706600000000,1073,208,106,Write,ACK
6.547801800000000,1073,208,12,Write,ACK
6.598043800000000,1074,208,106,Write,ACK
6.598139000000000,1074,208,192,Write,ACK
6.598385500000000,1075,208,56,Write,ACK
6.598480700000000,1075,208,2,Write,ACK
6.598722200000000,1076,208,35,Write,ACK
6.598817400000000,1076,208,0,Write,ACK
6.699060100000000,1077,208,6,Write,ACK
6.699290400000000,1078,209,1,Read,ACK
6.699386500000000,1078,209,60,Read,NAK
6.699649600000000,1079,208,8,Write,ACK
6.699874900000000,1080,209,1,Read,ACK
6.699971000000000,1080,209,209,Read,NAK
6.700234100000000,1081,208,10,Write,ACK
6.700459300000000,,209,3,Read,ACK
6.700555400000000,,209,212,Read,NAK
