Time [s],Packet ID,Address,Data,Read/Write,ACK/NAK
5.082871000000000,0,208,107,Write,ACK
5.082966100000000,0,208,128,Write,ACK
5.183198700000000,1,208,107,Write,ACK
5.183293900000000,1,208,0,Write,ACK
5.183535500000000,2,208,6,Write,ACK
5.183760800000000,3,209,1,Read,ACK
5.183857000000000,3,209,60,Read,ACK
5.183953200000000,3,209,1,Read,ACK
5.184049300000000,3,209,209,Read,ACK
5.184145500000000,3,209,3,Read,ACK
5.184241600000000,3,209,212,Read,NAK
5.184544800000000,4,208,27,Write,ACK
5.184640000000000,4,208,24,Write,ACK
5.184881600000000,5,208,28,Write,ACK
5.184976800000000,5,208,0,Write,ACK
5.185233200000000,6,208,25,Write,ACK
5.185328400000000,6,208,9,Write,ACK
5.185585000000000,7,208,26,Write,ACK
5.185680200000000,7,208,3,Write,ACK
5.185926700000000,8,208,56,Write,ACK
5.186021900000000,8,208,0,Write,ACK
5.186263400000000,9,208,106,Write,ACK
5.186488600000000,10,209,0,Read,NAK
5.186746800000000,11,208,106,Write,ACK
5.186842000000000,11,208,32,Write,ACK
5.190088200000000,12,208,55,Write,ACK
5.190183400000000,12,208,128,Write,ACK
5.190424900000000,13,208,107,Write,ACK
5.190520100000000,13,208,64,Write,ACK
5.190761600000000,14,208,108,Write,ACK
5.190856800000000,14,208,63,Write,ACK
5.241108900000000,15,208,107,Write,ACK
5.241204000000000,15,208,1,Write,ACK
5.241445600000000,16,208,108,Write,ACK
5.241540800000000,16,208,0,Write,ACK
5.291792900000000,17,208,56,Write,ACK
5.291888100000000,17,208,1,Write,ACK
5.292129500000000,18,208,56,Write,ACK
5.292224700000000,18,208,0,Write,ACK
5.292471300000000,19,208,35,Write,ACK
5.292566500000000,19,208,0,Write,ACK
5.292808100000000,20,208,106,Write,ACK
5.292903300000000,20,208,0,Write,ACK
5.293144800000000,21,208,106,Write,ACK
5.293240000000000,21,208,4,Write,ACK
5.293486600000000,22,208,106,Write,ACK
5.293581800000000,22,208,64,Write,ACK
5.343824000000000,23,208,56,Write,ACK
5.343919100000000,23,208,1,Write,ACK
5.344160700000000,24,208,35,Write,ACK
5.344255900000000,24,208,120,Write,ACK
5.344512400000000,25,208,25,Write,ACK
5.344607500000000,25,208,19,Write,ACK
5.344864000000000,26,208,26,Write,ACK
5.344959200000000,26,208,4,Write,ACK
5.345240700000000,27,208,109,Write,ACK
5.345335900000000,27,208,0,Write,ACK
5.345431100000000,27,208,0,Write,ACK
5.345742600000000,28,208,111,Write,ACK
5.345837800000000,28,208,0,Write,ACK
5.345933000000000,28,208,0,Write,ACK
5.346028100000000,28,208,112,Write,ACK
5.346123300000000,28,208,0,Write,ACK
5.346218500000000,28,208,0,Write,ACK
5.346313700000000,28,208,0,Write,ACK
5.346408900000000,28,208,0,Write,ACK
5.346504000000000,28,208,36,Write,ACK
5.346599200000000,28,208,0,Write,ACK
5.346694400000000,28,208,0,Write,ACK
5.346789600000000,28,208,0,Write,ACK
5.346884800000000,28,208,2,Write,ACK
5.346979900000000,28,208,0,Write,ACK
5.347075100000000,28,208,3,Write,ACK
5.347170300000000,28,208,0,Write,ACK
5.347265500000000,28,208,0,Write,ACK
5.347512100000000,29,208,109,Write,ACK
5.347607300000000,29,208,0,Write,ACK
5.347702400000000,29,208,0,Write,ACK
5.347944000000000,30,208,111,Write,ACK
5.348169200000000,31,209,0,Read,ACK
5.348265400000000,31,209,0,Read,ACK
5.348361600000000,31,209,112,Read,ACK
5.348457700000000,31,209,0,Read,ACK
5.348553900000000,31,209,0,Read,ACK
5.348650000000000,31,209,0,Read,ACK
5.348746200000000,31,209,0,Read,ACK
5.348842300000000,31,209,36,Read,ACK
5.348938500000000,31,209,0,Read,ACK
5.349034700000000,31,209,0,Read,ACK
5.349130900000000,31,209,0,Read,ACK
5.349227100000000,31,209,2,Read,ACK
5.349323200000000,31,209,0,Read,ACK
5.349419400000000,31,209,3,Read,ACK
5.349515600000000,31,209,0,Read,ACK
5.349611700000000,31,209,0,Read,NAK
5.350009700000000,32,208,109,Write,ACK
5.350104800000000,32,208,0,Write,ACK
5.350200000000000,32,208,16,Write,ACK
5.350506600000000,33,208,111,Write,ACK
5.350601700000000,33,208,0,Write,ACK
5.350696900000000,33,208,101,Write,ACK
5.350792000000000,33,208,0,Write,ACK
5.350887200000000,33,208,84,Write,ACK
5.350982300000000,33,208,255,Write,ACK
5.351084200000000,33,208,239,Write,ACK
5.351179400000000,33,208,0,Write,ACK
5.351274600000000,33,208,0,Write,ACK
5.351369700000000,33,208,250,Write,ACK
5.351464900000000,33,208,128,Write,ACK
5.351560100000000,33,208,0,Write,ACK
5.351655300000000,33,208,11,Write,ACK
5.351750400000000,33,208,18,Write,ACK
5.351845500000000,33,208,130,Write,ACK
5.351940700000000,33,208,0,Write,ACK
5.352035900000000,33,208,1,Write,ACK
5.352282500000000,34,208,109,Write,ACK
5.352377600000000,34,208,0,Write,ACK
5.352472800000000,34,208,16,Write,ACK
5.352714300000000,35,208,111,Write,ACK
5.352939500000000,36,209,0,Read,ACK
5.353035700000000,36,209,101,Read,ACK
5.353131800000000,36,209,0,Read,ACK
5.353228000000000,36,209,84,Read,ACK
5.353324200000000,36,209,255,Read,ACK
5.353420400000000,36,209,239,Read,ACK
5.353516500000000,36,209,0,Read,ACK
5.353612700000000,36,209,0,Read,ACK
5.353708900000000,36,209,250,Read,ACK
5.353805100000000,36,209,128,Read,ACK
5.353901300000000,36,209,0,Read,ACK
5.353997400000000,36,209,11,Read,ACK
5.354093600000000,36,209,18,Read,ACK
5.354189800000000,36,209,130,Read,ACK
5.354286000000000,36,209,0,Read,ACK
5.354382100000000,36,209,1,Read,NAK
5.354780100000000,37,208,109,Write,ACK
5.354875200000000,37,208,0,Write,ACK
5.354970400000000,37,208,32,Write,ACK
5.355281900000000,38,208,111,Write,ACK
5.355377100000000,38,208,3,Write,ACK
5.355472200000000,38,208,12,Write,ACK
5.355567400000000,38,208,48,Write,ACK
5.355662600000000,38,208,195,Write,ACK
5.355757800000000,38,208,14,Write,ACK
5.355853000000000,38,208,140,Write,ACK
5.355948100000000,38,208,140,Write,ACK
5.356043300000000,38,208,233,Write,ACK
5.356138500000000,38,208,20,Write,ACK
5.356233700000000,38,208,213,Write,ACK
5.356328900000000,38,208,64,Write,ACK
5.356424000000000,38,208,2,Write,ACK
5.356519200000000,38,208,19,Write,ACK
5.356614400000000,38,208,113,Write,ACK
5.356709600000000,38,208,15,Write,ACK
5.356804800000000,38,208,142,Write,ACK
5.357051400000000,39,208,109,Write,ACK
5.357146500000000,39,208,0,Write,ACK
5.357241700000000,39,208,32,Write,ACK
5.357483200000000,40,208,111,Write,ACK
5.357708500000000,41,209,3,Read,ACK
5.357804700000000,41,209,12,Read,ACK
5.357900800000000,41,209,48,Read,ACK
5.357996900000000,41,209,195,Read,ACK
5.358093100000000,41,209,14,Read,ACK
5.358189300000000,41,209,140,Read,ACK
5.358285400000000,41,209,140,Read,ACK
5.358381600000000,41,209,233,Read,ACK
5.358477800000000,41,209,20,Read,ACK
5.358574000000000,41,209,213,Read,ACK
5.358670200000000,41,209,64,Read,ACK
5.358766300000000,41,209,2,Read,ACK
5.358862500000000,41,209,19,Read,ACK
5.358958700000000,41,209,113,Read,ACK
5.359054900000000,41,209,15,Read,ACK
5.359151000000000,41,209,142,Read,NAK
5.359549000000000,42,208,109,Write,ACK
5.359644200000000,42,208,0,Write,ACK
5.359739400000000,42,208,48,Write,ACK
5.360051000000000,43,208,111,Write,ACK
5.360146100000000,43,208,56,Write,ACK
5.360241300000000,43,208,131,Write,ACK
5.360336400000000,43,208,248,Write,ACK
5.360431600000000,43,208,131,Write,ACK
5.360526800000000,43,208,48,Write,ACK
5.360622000000000,43,208,0,Write,ACK
5.360717200000000,43,208,248,Write,ACK
5.360812300000000,43,208,131,Write,ACK
5.360907500000000,43,208,37,Write,ACK
5.361002600000000,43,208,142,Write,ACK
5.361097800000000,43,208,248,Write,ACK
5.361192900000000,43,208,131,Write,ACK
5.361288100000000,43,208,48,Write,ACK
5.361383300000000,43,208,0,Write,ACK
5.361478500000000,43,208,248,Write,ACK
5.361573600000000,43,208,131,Write,ACK
5.361820200000000,44,208,109,Write,ACK
5.361915400000000,44,208,0,Write,ACK
5.362010600000000,44,208,48,Write,ACK
5.362252100000000,45,208,111,Write,ACK
5.362477400000000,46,209,56,Read,ACK
5.362573600000000,46,209,131,Read,ACK
5.362669700000000,46,209,248,Read,ACK
5.362765900000000,46,209,131,Read,ACK
5.362862100000000,46,209,48,Read,ACK
5.362958300000000,46,209,0,Read,ACK
5.363054400000000,46,209,248,Read,ACK
5.363150500000000,46,209,131,Read,ACK
5.363246700000000,46,209,37,Read,ACK
5.363342900000000,46,209,142,Read,ACK
5.363439000000000,46,209,248,Read,ACK
5.363535200000000,46,209,131,Read,ACK
5.363631400000000,46,209,48,Read,ACK
5.363727600000000,46,209,0,Read,ACK
5.363823800000000,46,209,248,Read,ACK
5.363919900000000,46,209,131,Read,NAK
5.364327900000000,47,208,109,Write,ACK
5.364423100000000,47,208,0,Write,ACK
5.364518300000000,47,208,64,Write,ACK
5.364824800000000,48,208,111,Write,ACK
5.364920000000000,48,208,255,Write,ACK
5.365015200000000,48,208,255,Write,ACK
5.365110300000000,48,208,255,Write,ACK
5.365205500000000,48,208,255,Write,ACK
5.365300700000000,48,208,15,Write,ACK
5.365395900000000,48,208,254,Write,ACK
5.365491000000000,48,208,169,Write,ACK
5.365586200000000,48,208,214,Write,ACK
5.365681400000000,48,208,36,Write,ACK
5.365776600000000,48,208,0,Write,ACK
5.365871800000000,48,208,4,Write,ACK
5.365966900000000,48,208,0,Write,ACK
5.366062100000000,48,208,26,Write,ACK
5.366157200000000,48,208,130,Write,ACK
5.366252400000000,48,208,121,Write,ACK
5.366347500000000,48,208,161,Write,ACK
5.366594100000000,49,208,109,Write,ACK
5.366689300000000,49,208,0,Write,ACK
5.366784500000000,49,208,64,Write,ACK
5.367026000000000,50,208,111,Write,ACK
5.367251300000000,51,209,255,Read,ACK
5.367347400000000,51,209,255,Read,ACK
5.367443600000000,51,209,255,Read,ACK
5.367539800000000,51,209,255,Read,ACK
5.367636000000000,51,209,15,Read,ACK
5.367732200000000,51,209,254,Read,ACK
5.367828300000000,51,209,169,Read,ACK
5.367924500000000,51,209,214,Read,ACK
5.368020700000000,51,209,36,Read,ACK
5.368116900000000,51,209,0,Read,ACK
5.368213100000000,51,209,4,Read,ACK
5.368309200000000,51,209,0,Read,ACK
5.368405400000000,51,209,26,Read,ACK
5.368501600000000,51,209,130,Read,ACK
5.368597800000000,51,209,121,Read,ACK
5.368693900000000,51,209,161,Read,NAK
5.369091900000000,52,208,109,Write,ACK
5.369187000000000,52,208,0,Write,ACK
5.369282200000000,52,208,80,Write,ACK
5.369588700000000,53,208,111,Write,ACK
5.369683900000000,53,208,0,Write,ACK
5.369779000000000,53,208,0,Write,ACK
5.369874200000000,53,208,0,Write,ACK
5.369969400000000,53,208,60,Write,ACK
5.370064600000000,53,208,255,Write,ACK
5.370159800000000,53,208,255,Write,ACK
5.370254900000000,53,208,0,Write,ACK
5.370350100000000,53,208,0,Write,ACK
5.370445300000000,53,208,0,Write,ACK
5.370540500000000,53,208,16,Write,ACK
5.370635700000000,53,208,0,Write,ACK
5.370730800000000,53,208,0,Write,ACK
5.370826000000000,53,208,56,Write,ACK
5.370921200000000,53,208,131,Write,ACK
5.371016400000000,53,208,111,Write,ACK
5.371111600000000,53,208,162,Write,ACK
5.371358200000000,54,208,109,Write,ACK
5.371453300000000,54,208,0,Write,ACK
5.371548500000000,54,208,80,Write,ACK
5.371790100000000,55,208,111,Write,ACK
5.372015300000000,56,209,0,Read,ACK
5.372111500000000,56,209,0,Read,ACK
5.372207600000000,56,209,0,Read,ACK
5.372303700000000,56,209,60,Read,ACK
5.372399900000000,56,209,255,Read,ACK
5.372496100000000,56,209,255,Read,ACK
5.372592200000000,56,209,0,Read,ACK
5.372688400000000,56,209,0,Read,ACK
5.372784600000000,56,209,0,Read,ACK
5.372880800000000,56,209,16,Read,ACK
5.372977000000000,56,209,0,Read,ACK
5.373073100000000,56,209,0,Read,ACK
5.373169300000000,56,209,56,Read,ACK
5.373265500000000,56,209,131,Read,ACK
5.373361700000000,56,209,111,Read,ACK
5.373457800000000,56,209,162,Read,NAK
5.373855900000000,57,208,109,Write,ACK
5.373951100000000,57,208,0,Write,ACK
5.374046200000000,57,208,96,Write,ACK
5.374357800000000,58,208,111,Write,ACK
5.374452900000000,58,208,0,Write,ACK
5.374548100000000,58,208,62,Write,ACK
5.374643300000000,58,208,3,Write,ACK
5.374738500000000,58,208,48,Write,ACK
5.374833700000000,58,208,64,Write,ACK
5.374928800000000,58,208,0,Write,ACK
5.375024000000000,58,208,0,Write,ACK
5.375119100000000,58,208,0,Write,ACK
5.375214300000000,58,208,2,Write,ACK
5.375309400000000,58,208,202,Write,ACK
5.375404500000000,58,208,227,Write,ACK
5.375499700000000,58,208,9,Write,ACK
5.375594900000000,58,208,62,Write,ACK
5.375690100000000,58,208,128,Write,ACK
5.375785300000000,58,208,0,Write,ACK
5.375880400000000,58,208,0,Write,ACK
5.376127000000000,59,208,109,Write,ACK
5.376222200000000,59,208,0,Write,ACK
5.376317400000000,59,208,96,Write,ACK
5.376558900000000,60,208,111,Write,ACK
5.376784200000000,61,209,0,Read,ACK
5.376880400000000,61,209,62,Read,ACK
5.376976600000000,61,209,3,Read,ACK
5.377072800000000,61,209,48,Read,ACK
5.377168900000000,61,209,64,Read,ACK
5.377265100000000,61,209,0,Read,ACK
5.377361200000000,61,209,0,Read,ACK
5.377457300000000,61,209,0,Read,ACK
5.377553500000000,61,209,2,Read,ACK
5.377649700000000,61,209,202,Read,ACK
5.377745800000000,61,209,227,Read,ACK
5.377842000000000,61,209,9,Read,ACK
5.377938200000000,61,209,62,Read,ACK
5.378034400000000,61,209,128,Read,ACK
5.378130600000000,61,209,0,Read,ACK
5.378226700000000,61,209,0,Read,NAK
5.378629800000000,62,208,109,Write,ACK
5.378724900000000,62,208,0,Write,ACK
5.378820100000000,62,208,112,Write,ACK
5.379126600000000,63,208,111,Write,ACK
5.379221800000000,63,208,32,Write,ACK
5.379317000000000,63,208,0,Write,ACK
5.379412100000000,63,208,0,Write,ACK
5.379507200000000,63,208,0,Write,ACK
5.379602400000000,63,208,0,Write,ACK
5.379697500000000,63,208,0,Write,ACK
5.379792700000000,63,208,0,Write,ACK
5.379887900000000,63,208,0,Write,ACK
5.379983100000000,63,208,64,Write,ACK
5.380078300000000,63,208,0,Write,ACK
5.380173400000000,63,208,0,Write,ACK
5.380268600000000,63,208,0,Write,ACK
5.380363800000000,63,208,96,Write,ACK
5.380459000000000,63,208,0,Write,ACK
5.380554200000000,63,208,0,Write,ACK
5.380649300000000,63,208,0,Write,ACK
5.380895900000000,64,208,109,Write,ACK
5.380991100000000,64,208,0,Write,ACK
5.381088300000000,64,208,112,Write,ACK
5.381329800000000,65,208,111,Write,ACK
5.381555100000000,66,209,32,Read,ACK
5.381651300000000,66,209,0,Read,ACK
5.381747500000000,66,209,0,Read,ACK
5.381843700000000,66,209,0,Read,ACK
5.381939800000000,66,209,0,Read,ACK
5.382036000000000,66,209,0,Read,ACK
5.382132200000000,66,209,0,Read,ACK
5.382228400000000,66,209,0,Read,ACK
5.382324600000000,66,209,64,Read,ACK
5.382420700000000,66,209,0,Read,ACK
5.382516900000000,66,209,0,Read,ACK
5.382613100000000,66,209,0,Read,ACK
5.382709300000000,66,209,96,Read,ACK
5.382805500000000,66,209,0,Read,ACK
5.382901600000000,66,209,0,Read,ACK
5.382997800000000,66,209,0,Read,NAK
5.383395800000000,67,208,109,Write,ACK
5.383490900000000,67,208,0,Write,ACK
5.383586000000000,67,208,128,Write,ACK
5.383892500000000,68,208,111,Write,ACK
5.383987700000000,68,208,0,Write,ACK
5.384088700000000,68,208,12,Write,ACK
5.384183800000000,68,208,0,Write,ACK
5.384279000000000,68,208,0,Write,ACK
5.384374200000000,68,208,0,Write,ACK
5.384469400000000,68,208,12,Write,ACK
5.384564500000000,68,208,24,Write,ACK
5.384659600000000,68,208,110,Write,ACK
5.384754800000000,68,208,0,Write,ACK
5.384850000000000,68,208,0,Write,ACK
5.384945100000000,68,208,6,Write,ACK
5.385040300000000,68,208,146,Write,ACK
5.385135500000000,68,208,10,Write,ACK
5.385230700000000,68,208,22,Write,ACK
5.385325900000000,68,208,192,Write,ACK
5.385421000000000,68,208,223,Write,ACK
5.385667600000000,69,208,109,Write,ACK
5.385762800000000,69,208,0,Write,ACK
5.385858000000000,69,208,128,Write,ACK
5.386099500000000,70,208,111,Write,ACK
5.386324800000000,71,209,0,Read,ACK
5.386420900000000,71,209,12,Read,ACK
5.386517100000000,71,209,0,Read,ACK
5.386613200000000,71,209,0,Read,ACK
5.386709400000000,71,209,0,Read,ACK
5.386805500000000,71,209,12,Read,ACK
5.386901700000000,71,209,24,Read,ACK
5.386997900000000,71,209,110,Read,ACK
5.387094100000000,71,209,0,Read,ACK
5.387190300000000,71,209,0,Read,ACK
5.387286400000000,71,209,6,Read,ACK
5.387382600000000,71,209,146,Read,ACK
5.387478800000000,71,209,10,Read,ACK
5.387575000000000,71,209,22,Read,ACK
5.387671200000000,71,209,192,Read,ACK
5.387767300000000,71,209,223,Read,NAK
5.388165300000000,72,208,109,Write,ACK
5.388260500000000,72,208,0,Write,ACK
5.388355700000000,72,208,144,Write,ACK
5.388662100000000,73,208,111,Write,ACK
5.388757200000000,73,208,255,Write,ACK
5.388852400000000,73,208,255,Write,ACK
5.388947600000000,73,208,2,Write,ACK
5.389042800000000,73,208,86,Write,ACK
5.389138000000000,73,208,253,Write,ACK
5.389233100000000,73,208,140,Write,ACK
5.389328300000000,73,208,211,Write,ACK
5.389423500000000,73,208,119,Write,ACK
5.389518700000000,73,208,255,Write,ACK
5.389613900000000,73,208,225,Write,ACK
5.389709000000000,73,208,196,Write,ACK
5.389804200000000,73,208,150,Write,ACK
5.389899400000000,73,208,224,Write,ACK
5.389994600000000,73,208,197,Write,ACK
5.390089700000000,73,208,190,Write,ACK
5.390184900000000,73,208,170,Write,ACK
5.390431500000000,74,208,109,Write,ACK
5.390526700000000,74,208,0,Write,ACK
5.390625400000000,74,208,144,Write,ACK
5.390866900000000,75,208,111,Write,ACK
5.391092100000000,76,209,255,Read,ACK
5.391188300000000,76,209,255,Read,ACK
5.391284500000000,76,209,2,Read,ACK
5.391380600000000,76,209,86,Read,ACK
5.391476800000000,76,209,253,Read,ACK
5.391573000000000,76,209,140,Read,ACK
5.391669100000000,76,209,211,Read,ACK
5.391765200000000,76,209,119,Read,ACK
5.391861400000000,76,209,255,Read,ACK
5.391957600000000,76,209,225,Read,ACK
5.392053800000000,76,209,196,Read,ACK
5.392149900000000,76,209,150,Read,ACK
5.392246100000000,76,209,224,Read,ACK
5.392342300000000,76,209,197,Read,ACK
5.392438500000000,76,209,190,Read,ACK
5.392534600000000,76,209,170,Read,NAK
5.392937700000000,77,208,109,Write,ACK
5.393032900000000,77,208,0,Write,ACK
5.393128100000000,77,208,160,Write,ACK
5.393434600000000,78,208,111,Write,ACK
5.393529800000000,78,208,0,Write,ACK
5.393625000000000,78,208,0,Write,ACK
5.393720200000000,78,208,0,Write,ACK
5.393815400000000,78,208,0,Write,ACK
5.393910500000000,78,208,255,Write,ACK
5.394005700000000,78,208,255,Write,ACK
5.394100900000000,78,208,11,Write,ACK
5.394196100000000,78,208,43,Write,ACK
5.394291300000000,78,208,0,Write,ACK
5.394386400000000,78,208,0,Write,ACK
5.394481600000000,78,208,22,Write,ACK
5.394576800000000,78,208,87,Write,ACK
5.394672000000000,78,208,0,Write,ACK
5.394767100000000,78,208,0,Write,ACK
5.394862300000000,78,208,3,Write,ACK
5.394957500000000,78,208,89,Write,ACK
5.395214100000000,79,208,109,Write,ACK
5.395309300000000,79,208,0,Write,ACK
5.395404500000000,79,208,160,Write,ACK
5.395645900000000,80,208,111,Write,ACK
5.395875100000000,81,209,0,Read,ACK
5.395971200000000,81,209,0,Read,ACK
5.396067400000000,81,209,0,Read,ACK
5.396163500000000,81,209,0,Read,ACK
5.396259700000000,81,209,255,Read,ACK
5.396355900000000,81,209,255,Read,ACK
5.396452100000000,81,209,11,Read,ACK
5.396548200000000,81,209,43,Read,ACK
5.396644400000000,81,209,0,Read,ACK
5.396740600000000,81,209,0,Read,ACK
5.396836700000000,81,209,22,Read,ACK
5.396932800000000,81,209,87,Read,ACK
5.397029000000000,81,209,0,Read,ACK
5.397125200000000,81,209,0,Read,ACK
5.397221400000000,81,209,3,Read,ACK
5.397317500000000,81,209,89,Read,NAK
5.397715500000000,82,208,109,Write,ACK
5.397810600000000,82,208,0,Write,ACK
5.397905700000000,82,208,176,Write,ACK
5.398217300000000,83,208,111,Write,ACK
5.398312500000000,83,208,64,Write,ACK
5.398407600000000,83,208,0,Write,ACK
5.398502800000000,83,208,0,Write,ACK
5.398598000000000,83,208,0,Write,ACK
5.398693200000000,83,208,0,Write,ACK
5.398788400000000,83,208,0,Write,ACK
5.398883500000000,83,208,29,Write,ACK
5.398978700000000,83,208,250,Write,ACK
5.399073900000000,83,208,0,Write,ACK
5.399169100000000,83,208,2,Write,ACK
5.399264300000000,83,208,108,Write,ACK
5.399359400000000,83,208,29,Write,ACK
5.399454600000000,83,208,0,Write,ACK
5.399549800000000,83,208,0,Write,ACK
5.399645000000000,83,208,0,Write,ACK
5.399740100000000,83,208,0,Write,ACK
5.399992100000000,84,208,109,Write,ACK
